!Mode: Constant current
!Vd_set [V]: 1.6
!Id_set [A]: 0.04
!Vd [V]: 1.6
!Vg [V]: -0.135
!Id [A]: 0.039988
!Ig [A]: -1.4e-05
!bias: Vd=1.6V Id=40.0mA
!psx-card: 1
!psx-channel: 1
!VNA ID: Agilent Technologies,E8361A,US43140535,A.06.04.32
!IFBW [Hz]: 50.0
!Averaging: 1
!Power [dBm]: -50.0
!Power Slope [dB/GHz]: 0.0
!Reduce IF at low frequency: 1
!Sweep_index: 1
!DUT model number: LNF-LNC16_28WB
!DUT serial number: 149Z
!Station: RT1
!Setup: Room temperature S-parameter
!Method: rt-spar
!Measurement start: 2021-02-22 17:17:17
!Measurement end: 2021-02-22 17:17:35
!Measurement length [s]: 17.90469479560852
!Saved by LNF Software Version: 0.9.109
#HZ S DB R 50
1.000000000000000e+08	1.973741300838645e-02	-3.704403002889208e+00	-5.948098397505311e+01	1.206246566890105e+01	-8.081372051777491e+01	-1.574728712737594e+02	-7.661021541075251e-03	-5.555426947711148e+00
2.000000000000000e+08	-9.090458671087176e-03	-7.567851659404658e+00	-6.152338397801859e+01	3.719042623262842e+01	-8.404829948710531e+01	-1.299517326772859e+02	-6.889963020562821e-03	-1.107029274051860e+01
3.000000000000000e+08	-2.539939969047445e-02	-1.128525663085904e+01	-6.152272954042436e+01	-7.772730362801533e+01	-8.297268100133246e+01	1.300485674020656e+02	-1.062696978708567e-02	-1.658958231526676e+01
4.000000000000000e+08	-7.364554486360730e-03	-1.526714413471877e+01	-6.364511738479723e+01	-1.887274755296967e+01	-7.949271427198039e+01	-1.254307980317871e+01	1.365805346724241e-02	-2.202336487739445e+01
5.000000000000000e+08	-1.765952194519282e-02	-1.880115210492883e+01	-6.341347810032444e+01	-1.461692183056579e+02	-7.952060100997451e+01	-1.718191777313407e+02	3.676243197885155e-02	-2.742952468299647e+01
6.000000000000000e+08	-1.325588577012462e-02	-2.268279762107519e+01	-6.815633748892844e+01	-1.127707466791105e+02	-8.713567067596605e+01	6.544316761611621e+01	1.067925642720520e-01	-3.333839474521791e+01
7.000000000000000e+08	-1.366026844972934e-02	-2.650208798283863e+01	-7.266599780811342e+01	1.589816040098313e+02	-8.263009456690044e+01	1.101436166612037e+01	9.395601856234885e-02	-3.950866880585517e+01
8.000000000000000e+08	-1.228403838926035e-02	-3.026493796781899e+01	-6.636112073450391e+01	-1.591669338676076e+02	-8.864183910667796e+01	-1.521962443816101e+02	1.169167610657334e-02	-4.526449428966328e+01
9.000000000000000e+08	-1.287047868645629e-02	-3.403413712602089e+01	-7.149532078922203e+01	1.132111158410712e+02	-8.643230599396419e+01	1.534858220628148e+01	-2.301576670821547e-02	-5.080934815083118e+01
1.000000000000000e+09	-1.242151345024289e-02	-3.772110705776841e+01	-7.042460946611028e+01	3.164439417263818e+01	-9.494565048857561e+01	4.921153280214662e+01	-5.829646677123955e-02	-5.635309992646488e+01
1.100000000000000e+09	-8.859223199263171e-03	-4.174593219094196e+01	-6.445342328836092e+01	9.603961610544091e+01	-8.668092575401403e+01	6.600115234246080e+01	-8.955088719904716e-02	-6.184545245959136e+01
1.200000000000000e+09	-1.878046328451188e-02	-4.542642638583728e+01	-7.121856068279081e+01	-9.346780279711275e+01	-9.001205937618073e+01	-3.809604281898460e+01	-1.311606504301438e-01	-6.722209100248359e+01
1.300000000000000e+09	-1.718219758880993e-02	-4.914081696779932e+01	-6.553538920653999e+01	-8.398301850761001e+01	-8.589075350936474e+01	4.347337031587828e+01	-1.497946661549642e-01	-7.259209537144687e+01
1.400000000000000e+09	5.978265123462966e-03	-5.311151927543348e+01	-6.623099379293849e+01	1.233435113396384e+02	-8.524977291724352e+01	4.943853471800488e+01	-1.782862406564688e-01	-7.807173916606729e+01
1.500000000000000e+09	-1.612692588900895e-02	-5.692712453152778e+01	-7.379203978164225e+01	1.034139282077843e+02	-9.709085156191580e+01	2.462537799505881e+01	-2.126316014781089e-01	-8.343500627507206e+01
1.600000000000000e+09	-2.244052412257637e-02	-6.072879948030893e+01	-6.536599625723306e+01	-1.327690118593502e+02	-9.469715398457291e+01	4.760505125602330e+01	-2.420361143657187e-01	-8.884971373494380e+01
1.700000000000000e+09	-2.031580015569408e-02	-6.446358888528857e+01	-6.304869571602715e+01	7.771259090555409e+01	-8.346645126782803e+01	-8.182647821387304e+00	-2.610179124073663e-01	-9.412858942654455e+01
1.800000000000000e+09	-1.107911292849387e-02	-6.836529971714327e+01	-7.068024926137652e+01	1.431691965015453e+02	-7.606991554515257e+01	-1.791778174507751e+02	-2.872179292828364e-01	-9.959160023580250e+01
1.900000000000000e+09	-2.664475819742876e-02	-7.216334154701838e+01	-7.073390651290879e+01	-1.048461359467839e+02	-9.182337059197705e+01	8.937583820614597e+01	-3.061094590561028e-01	-1.048747033032352e+02
2.000000000000000e+09	-3.041005963078859e-02	-7.581491652720646e+01	-6.236158649945697e+01	1.028159722164345e+02	-8.558864373342763e+01	-1.100457431578906e+02	-3.478675625705660e-01	-1.102780905596052e+02
2.100000000000000e+09	-3.941875266557775e-02	-7.964161955092308e+01	-5.989085769285560e+01	3.828650291728112e+01	-8.661073720929443e+01	-3.900381544008027e+01	-3.733672069788592e-01	-1.154911253865855e+02
2.200000000000000e+09	-3.253552761452373e-02	-8.352182501120102e+01	-6.174882435326505e+01	-1.535330677245452e+02	-9.147094286965172e+01	1.198643446596980e+02	-3.943041391253638e-01	-1.209102112759369e+02
2.300000000000000e+09	-2.207089648393631e-02	-8.731599585896204e+01	-6.664679252875405e+01	-1.506607316339351e+02	-7.948025704415041e+01	-5.056413705329777e+01	-4.244705815258840e-01	-1.262428370459318e+02
2.400000000000000e+09	-4.980983196460731e-02	-9.124218848462432e+01	-6.713883788991875e+01	1.828507394530899e+01	-8.140087045586085e+01	-1.200849619576935e+02	-4.543929395035284e-01	-1.316096482922391e+02
2.500000000000000e+09	-2.103695853967911e-02	-9.493549483457392e+01	-8.675862086261306e+01	-1.357067801822370e+02	-8.530439875879529e+01	1.554835389825055e+02	-4.900693153827363e-01	-1.369366564009856e+02
2.600000000000000e+09	-3.275263259051851e-02	-9.879845721682435e+01	-5.840649346753896e+01	-2.651210419846863e+01	-7.734595521384671e+01	-1.701192668538790e+02	-5.090872731504115e-01	-1.422650085350068e+02
2.700000000000000e+09	-9.286751451407888e-03	-1.026318195053326e+02	-6.634291745434732e+01	-1.766902483442013e+02	-8.133220381788277e+01	1.085311803058758e+02	-5.351633281434711e-01	-1.476488466969823e+02
2.800000000000000e+09	-2.385919755732109e-02	-1.064199675715322e+02	-6.114984935825906e+01	-1.406543300306674e+02	-7.823376310733549e+01	9.874871661585081e+01	-5.567538606445623e-01	-1.529579586085933e+02
2.900000000000000e+09	-2.517264553551420e-02	-1.103642105213973e+02	-6.761174417574254e+01	4.801451046018794e+01	-8.682719292639824e+01	-8.139371084345142e+01	-5.909779047915953e-01	-1.584021654087726e+02
3.000000000000000e+09	-3.844983875390019e-02	-1.140393500404526e+02	-7.279423448099968e+01	-5.025018457514464e+01	-7.990855750865494e+01	-8.009391833866239e+01	-6.175382471422697e-01	-1.637004380104873e+02
3.100000000000000e+09	-2.200811967526521e-02	-1.179526702999032e+02	-6.502367511789892e+01	1.728728534184012e+02	-8.084278672424975e+01	3.836245367156214e+01	-6.498231977574793e-01	-1.690920350134855e+02
3.200000000000000e+09	-4.057527276128662e-03	-1.219065379737858e+02	-6.453601173740373e+01	-1.464511005979895e+02	-7.926062466610468e+01	1.723592348416947e+02	-6.718586845654442e-01	-1.743812342657723e+02
3.300000000000000e+09	-3.397285682028866e-02	-1.256288869648474e+02	-6.408514260655865e+01	-9.593060244448637e+01	-8.255700411038137e+01	1.624984950463767e+02	-6.984165577565692e-01	-1.797829845972603e+02
3.400000000000000e+09	-4.169777326186852e-02	-1.296027654627309e+02	-7.119154515718122e+01	-1.606710931844543e+02	-8.144413944353940e+01	8.909465208043123e+01	-7.301452620355218e-01	1.748995060952049e+02
3.500000000000000e+09	-3.954013991913312e-02	-1.333558188590261e+02	-6.905843915699735e+01	1.182065816505717e+02	-8.642816018805421e+01	-2.631353844307239e+01	-7.589081783461431e-01	1.695405971381650e+02
3.600000000000000e+09	-2.487235658761560e-02	-1.373659849444554e+02	-5.995143198025914e+01	-1.008049933801404e+02	-8.198870644135489e+01	-1.374208017486592e+02	-7.877871060046917e-01	1.643095346942729e+02
3.700000000000000e+09	-3.591317701287505e-02	-1.411890512272294e+02	-6.372111446180384e+01	4.785423599976644e+01	-8.027394750789347e+01	-1.043725894432833e+02	-8.093248812572300e-01	1.589451586466316e+02
3.800000000000000e+09	-2.206975904993976e-02	-1.451848042793529e+02	-6.798416718967678e+01	-1.604368626273689e+02	-8.746299471028543e+01	9.401437104928232e+01	-8.396081568873111e-01	1.536794032750476e+02
3.900000000000000e+09	-6.370207727508155e-02	-1.490684684102888e+02	-7.298339448773140e+01	7.698848528522210e+01	-9.008227710623811e+01	-1.173777499898002e+02	-8.661933521578602e-01	1.483098186691079e+02
4.000000000000000e+09	-2.736228295035005e-02	-1.528457726316057e+02	-6.892523150651134e+01	-1.663730485361624e+02	-8.743662799441293e+01	1.658224844341229e+00	-9.022468636721054e-01	1.431653968750457e+02
4.100000000000000e+09	-6.156586047975080e-02	-1.567241830820533e+02	-7.093247812199670e+01	1.140180288864156e+01	-8.227992632981758e+01	1.375825595823917e+02	-9.253974643579117e-01	1.378440106660728e+02
4.200000000000000e+09	-4.287644417735588e-02	-1.607219177105120e+02	-7.055282638455058e+01	-1.070398220430064e+02	-8.334094755878797e+01	-7.438490106810101e+00	-9.600222690519480e-01	1.326384614060308e+02
4.300000000000000e+09	-4.412637796285788e-02	-1.648130416964475e+02	-6.560014718722401e+01	1.471626736195541e+02	-8.295994292175050e+01	9.871880530866616e+00	-9.793942369046320e-01	1.273516967360947e+02
4.400000000000000e+09	-5.890662327193369e-02	-1.686935071954954e+02	-7.002898113396527e+01	-1.280468355636683e+02	-8.141981649749042e+01	-8.931703653525386e+01	-1.019209730230221e+00	1.221584898422663e+02
4.500000000000000e+09	-6.618488503590733e-02	-1.724896293337263e+02	-6.931006473485647e+01	1.707809099466919e+02	-8.699584557131027e+01	2.039421056033179e+01	-1.044507620930644e+00	1.168833865623370e+02
4.600000000000000e+09	-5.799834414461089e-02	-1.765078396553687e+02	-7.007992195925392e+01	-1.172752203210470e+02	-8.765714380448128e+01	9.765043432520615e+01	-1.087809653511769e+00	1.116933279908718e+02
4.700000000000000e+09	-5.044246812160395e-02	1.794433137961337e+02	-6.702753518923083e+01	5.057372612344952e+01	-7.858338371149416e+01	-8.133312742625776e+01	-1.107498760093293e+00	1.064083113367755e+02
4.800000000000000e+09	-5.735850959987989e-02	1.756357634364616e+02	-7.976133792143199e+01	1.442071848235449e+02	-8.126698848918809e+01	7.204036296486258e+01	-1.145590333641648e+00	1.012167959128895e+02
4.900000000000000e+09	-7.240427812453158e-02	1.715562528231367e+02	-7.727886833573015e+01	-5.502098002009373e+01	-8.446515285461437e+01	-1.528972356262897e+02	-1.174469734233866e+00	9.599358807019817e+01
5.000000000000000e+09	-3.993284461994079e-02	1.677263283364622e+02	-7.473315800848354e+01	3.613776068844162e+01	-7.780033581916739e+01	-5.435304897897139e+01	-1.222832947903213e+00	9.070544966709363e+01
