! AWR Design Environment (17442) Wed Apr 12 16:42:06 2023
! Document = 'Adagio'
! nPorts: 2, nXvals: 101

# GHz S DB R 50
!Freq DBS11 AngS11 DBS21 AngS21 DBS12 AngS12 DBS22 AngS22 
0 -7.8997706e-10 0 -800 0 -800 0 4.1375049e-07 0 
0.1 -1.8286129 -69.933156 22.184908 -80.216952 -148.09477 7.1165318 -2.5037858 -46.065961 
0.2 -4.4100546 -109.33744 26.006472 -138.84007 -146.32119 -76.415063 -5.0346381 -70.37273 
0.3 -6.0600347 -124.43482 26.53566 -166.6582 -143.45141 -158.94571 -6.7163167 -88.308939 
0.4 -5.4907385 -127.42433 26.934704 168.28939 -141.11657 114.47321 -7.9349008 -102.9279 
0.5 -3.5348564 -136.32127 24.775273 138.23628 -143.19677 35.093433 -8.8550121 -115.13973 
0.6 -2.0195203 -150.78828 19.363266 122.65479 -149.35432 -19.129308 -9.5733438 -125.44119 
0.7 -1.1548267 -165.70638 11.767139 143.75072 -157.4128 -29.886677 -10.143519 -134.22221 
0.8 -0.69249423 -179.33044 13.131089 -153.74296 -156.10185 3.7880186 -10.606077 -141.81882 
0.9 -0.44290849 168.45434 18.194202 -140.64609 -150.53669 -1.3440355 -10.991734 -148.48457 
1 -0.30484538 157.36772 21.48397 -141.4014 -146.13114 -12.86649 -11.322649 -154.41062 
1.1 -0.22798793 147.11331 23.879573 -145.44528 -142.31548 -22.223591 -11.614727 -159.7433 
1.2 -0.1874004 137.45332 25.804421 -150.71601 -138.80241 -29.245134 -11.879491 -164.596 
1.3 -0.17077239 128.20672 27.451318 -156.62175 -135.47218 -34.812677 -12.125422 -169.05755 
1.4 -0.17241933 119.23454 28.919861 -162.95463 -132.27756 -39.701611 -12.358872 -173.19823 
1.5 -0.19048642 110.42652 30.26679 -169.63863 -129.20284 -44.424032 -12.584704 -177.07425 
1.6 -0.2256792 101.69151 31.526561 -176.65285 -126.24352 -49.279038 -12.806725 179.26894 
1.7 -0.28076209 92.95101 32.720702 175.99678 -123.3974 -54.431173 -13.027992 175.79414 
1.8 -0.36047642 84.13516 33.862387 168.28962 -120.66207 -59.971008 -13.251037 172.47055 
1.9 -0.4717098 75.180849 34.958752 160.1969 -118.03504 -65.952245 -13.478024 169.27225 
2 -0.62381682 66.031796 36.012063 151.68644 -115.5147 -72.410847 -13.71089 166.17715 
2.1 -0.82899875 56.640731 37.020291 142.72765 -113.10137 -79.37239 -13.951445 163.16611 
2.2 -1.1026231 46.97388 37.977481 133.29757 -110.79801 -86.851927 -14.201476 160.22245 
2.3 -1.4633063 37.017697 38.874193 123.38856 -108.61045 -94.849084 -14.462825 157.33166 
2.4 -1.9325505 26.787132 39.698344 113.01682 -106.54697 -103.34056 -14.737446 154.48139 
2.5 -2.5337572 16.333637 40.436673 102.23022 -104.61706 -112.27261 -15.027423 151.6616 
2.6 -3.290646 5.7500012 41.076879 91.112372 -102.82943 -121.55703 -15.334927 148.86482 
2.7 -4.2254631 -4.8309993 41.61012 79.779683 -101.18958 -131.07388 -15.66213 146.08603 
2.8 -5.3577885 -15.245177 42.033194 68.36989 -99.697628 -140.68279 -16.011105 143.32203 
2.9 -6.7049165 -25.309742 42.349614 57.024122 -98.347229 -150.24073 -16.383788 140.57046 
3 -8.2845903 -34.832895 42.569154 45.867798 -97.126049 -159.62096 -16.782029 137.82846 
3.1 -10.120522 -43.609592 42.706076 34.996395 -96.017495 -168.7271 -17.207742 135.09182 
3.2 -12.251254 -51.388791 42.776776 24.469443 -95.003063 -177.49904 -17.66309 132.35442 
3.3 -14.744109 -57.781516 42.797592 14.31234 -94.064506 174.08892 -18.15067 129.60821 
3.4 -17.718192 -62.015654 42.783274 4.5230778 -93.185342 166.03493 -18.673659 126.84327 
3.5 -21.375694 -62.183959 42.746196 -4.9193824 -92.35163 158.31796 -19.235963 124.04775 
3.6 -25.912208 -52.567659 42.696159 -14.047387 -91.552144 150.90556 -19.842354 121.2075 
3.7 -29.798587 -19.421151 42.640559 -22.898587 -90.778192 143.75996 -20.49867 118.30529 
3.8 -28.385079 18.642269 42.584737 -31.51179 -90.023253 136.84217 -21.212085 115.31939 
3.9 -25.45656 32.55778 42.53237 -39.92439 -89.282577 130.11459 -21.991502 112.22133 
4 -23.368186 35.538129 42.485831 -48.170926 -88.552806 123.54248 -22.848117 108.97235 
4.1 -21.994656 34.668575 42.446509 -56.282454 -87.831648 117.09458 -23.79625 105.51751 
4.2 -21.109279 32.273808 42.415062 -64.286336 -87.117621 110.74335 -24.854551 101.77569 
4.3 -20.569525 29.264267 42.391612 -72.206347 -86.409844 104.46482 -26.047761 97.621585 
4.4 -20.288467 26.072695 42.3759 -80.062895 -85.707873 98.238425 -27.409218 92.851479 
4.5 -20.210636 22.945798 42.367408 -87.873331 -85.011582 92.04668 -28.983918 87.113884 
4.6 -20.298306 20.052329 42.365441 -95.652257 -84.321067 85.87487 -30.829905 79.759214 
4.7 -20.523522 17.529276 42.369204 -103.41184 -83.636569 79.710733 -33.004716 69.500237 
4.8 -20.862873 15.503043 42.377852 -111.16209 -82.958422 73.544154 -35.469718 53.72144 
4.9 -21.293518 14.097618 42.390527 -118.91122 -82.287002 67.366906 -37.668798 28.329216 
5 -21.789732 13.432762 42.406394 -126.66583 -81.622697 61.172351 -38.043721 -5.0912735 
5.1 -22.319957 13.610204 42.424664 -134.43119 -80.96588 54.955195 -36.289775 -32.866408 
5.2 -22.845146 14.685645 42.444608 -142.21149 -80.316892 48.711253 -34.001712 -50.359329 
5.3 -23.320129 16.628239 42.465566 -150.01006 -79.676025 42.437228 -31.954585 -61.486317 
5.4 -23.700003 19.282558 42.486954 -157.82955 -79.043519 36.130495 -30.246837 -69.259362 
5.5 -23.951375 22.361717 42.508266 -165.67216 -78.419558 29.788931 -28.829317 -75.181992 
5.6 -24.063679 25.49803 42.529063 -173.53975 -77.804274 23.41073 -27.643181 -80.001143 
5.7 -24.053193 28.338804 42.548974 178.56598 -77.197751 16.994284 -26.641989 -84.111572 
5.8 -23.956561 30.635857 42.567678 170.6434 -76.600034 10.538064 -25.791665 -87.73488 
5.9 -23.818506 32.282872 42.584898 162.69088 -76.011143 4.0405306 -25.067433 -91.000856 
6 -23.681023 33.299475 42.600386 154.70671 -75.431078 -2.4999106 -24.451105 -93.986766 
6.1 -23.577624 33.791421 42.613914 146.68907 -74.859832 -9.0849303 -23.929106 -96.737504 
6.2 -23.53183 33.913495 42.625262 138.6361 -74.297402 -15.71629 -23.491061 -99.276499 
6.3 -23.55778 33.844899 42.634213 130.54582 -73.743788 -22.395804 -23.128778 -101.6119 
6.4 -23.66096 33.776619 42.640554 122.41625 -73.198999 -29.125326 -22.835459 -103.74029 
6.5 -23.838206 33.90429 42.644073 114.24538 -72.663049 -35.906696 -22.605063 -105.64916 
6.6 -24.076493 34.4194 42.644569 106.03124 -72.135946 -42.741727 -22.431747 -107.31881 
6.7 -24.35093 35.490047 42.64187 97.771898 -71.61768 -49.6322 -22.309358 -108.72435 
6.8 -24.623287 37.22241 42.635843 89.465421 -71.108205 -56.579889 -22.230959 -109.83811 
6.9 -24.844095 39.600716 42.626422 81.109784 -70.607413 -63.586648 -22.188423 -110.63296 
7 -24.962171 42.4244 42.613631 72.702737 -70.115113 -70.65456 -22.172179 -111.08692 
7.1 -24.942274 45.291436 42.597606 64.241562 -69.631001 -77.78617 -22.171202 -111.18884 
7.2 -24.782993 47.672867 42.578621 55.722766 -69.154647 -84.984821 -22.173439 -110.94505 
7.3 -24.522055 49.054819 42.557094 47.14161 -68.68547 -92.255069 -22.16679 -110.38526 
7.4 -24.225228 49.050115 42.533597 38.491605 -68.222746 -99.603259 -22.140684 -109.56585 
7.5 -23.968953 47.409397 42.508831 29.763788 -67.765617 -107.03817 -22.088062 -108.56785 
7.6 -23.828568 43.939558 42.483595 20.945978 -67.313133 -114.57185 -22.007315 -107.48813 
7.7 -23.874833 38.369118 42.4587 12.021805 -66.86433 -122.22051 -21.903605 -106.42423 
7.8 -24.17251 30.155534 42.434854 2.9696809 -66.418348 -130.00559 -21.789197 -105.45549 
7.9 -24.764866 18.178454 42.412481 -6.2396372 -65.974611 -137.9562 -21.682612 -104.62438 
8 -25.577669 0.23175582 42.391442 -15.643671 -65.533106 -146.10976 -21.60744 -103.91978 
8.1 -26.0687 -26.655792 42.370595 -25.284161 -65.094819 -154.50788 -21.591289 -103.25438 
8.2 -25.029432 -60.446671 42.347275 -35.214811 -64.66226 -163.20417 -21.662595 -102.43915 
8.3 -22.240063 -90.633842 42.316496 -45.498495 -64.240253 -172.26143 -21.846265 -101.13775 
8.4 -18.906545 -112.9307 42.269944 -56.205156 -63.836955 178.25043 -22.151335 -98.796511 
8.5 -15.748991 -130.01755 42.194753 -67.406397 -63.465061 168.25988 -22.538743 -94.581857 
8.6 -12.928418 -144.5053 42.072321 -79.164704 -63.143001 157.70441 -22.853224 -87.525248 
8.7 -10.447339 -157.83454 41.877636 -91.515671 -62.895613 146.54839 -22.758508 -77.418849 
8.8 -8.2876333 -170.72022 41.580027 -104.44364 -62.753387 134.80743 -21.898841 -66.364785 
8.9 -6.437808 176.53555 41.146387 -117.85662 -62.749238 122.57338 -20.321181 -57.992691 
9 -4.8910849 163.88981 40.54721 -131.57368 -62.912475 110.02701 -18.450435 -54.096133 
9.1 -3.636889 151.46389 39.76387 -145.33987 -63.261519 97.423078 -16.656941 -54.099866 
9.2 -2.6538921 139.45753 38.793643 -158.8722 -63.798879 85.044229 -15.108971 -56.692955 
9.3 -1.9086651 128.06848 37.649363 -171.91929 -64.511497 73.141491 -13.842786 -60.742253 
9.4 -1.3599306 117.4364 36.353773 175.69401 -65.376391 61.889549 -12.835535 -65.465689 
9.5 -0.96513966 107.62279 34.931743 164.0533 -66.368446 51.373413 -12.044503 -70.379156 
9.6 -0.68588683 98.620556 33.403705 153.16828 -67.466966 41.602088 -11.425387 -75.209307 
9.7 -0.49065236 90.376762 31.781648 142.99823 -68.659691 32.534003 -10.939712 -79.8179 
9.8 -0.35521037 82.815055 30.067068 133.4764 -69.944831 24.101431 -10.5568 -84.146539 
9.9 -0.26174502 75.85204 28.2495 124.52827 -71.332548 16.228636 -10.253287 -88.180225 
10 -0.19751883 69.406985 26.304016 116.08335 -72.847453 8.8437138 -10.011778 -91.925197 

!Noise Parameters
!Freq  NFmin(dB)  Mag(GammaOpt)  Ang(GammaOpt)(deg)  rn(normalized)
0 1.9286549e-15 0.99981559 180 2e-20
0.1 1.014866 0.85983702 70.148226 0.68285271
0.2 0.89292576 0.70736329 110.16907 0.13701711
0.3 0.81124088 0.62805867 129.28023 0.061027364
0.4 0.8119941 0.62427718 137.33689 0.047700782
0.5 0.95115027 0.69836035 143.76697 0.050667992
0.6 1.4583919 0.80417185 153.65717 0.064645243
0.7 3.1482278 0.88535183 165.91559 0.085509535
0.8 1.64255 0.91689754 178.45586 0.0060148124
0.9 0.47575054 0.91583489 -169.71046 0.00858375
1 0.21747845 0.90880634 -158.79827 0.014543904
1.1 0.12742198 0.90338829 -148.72774 0.017977492
1.2 0.085548711 0.89965521 -139.3505 0.01994163
1.3 0.06262691 0.89668649 -130.52581 0.02104645
1.4 0.04874149 0.89376011 -122.13852 0.021607313
1.5 0.039731968 0.89043715 -114.09871 0.021799996
1.6 0.033585561 0.88648248 -106.3368 0.021730562
1.7 0.029226815 0.88178593 -98.798749 0.021467479
1.8 0.026038388 0.87630613 -91.441983 0.021057498
1.9 0.023646493 0.87003423 -84.232453 0.02053409
2 0.021815339 0.86297195 -77.142421 0.019922205
2.1 0.020391033 0.85512059 -70.14886 0.019241094
2.2 0.019270313 0.84647511 -63.232304 0.018506074
2.3 0.018381997 0.83702358 -56.375983 0.017729645
2.4 0.017675913 0.82674727 -49.565212 0.016922252
2.5 0.017115665 0.81562474 -42.786902 0.016092786
2.6 0.016674501 0.8036317 -36.029237 0.015248946
2.7 0.016332016 0.79074736 -29.281365 0.014397486
2.8 0.016072496 0.77695478 -22.533219 0.013544406
2.9 0.015883498 0.7622447 -15.775334 0.012695074
3 0.015754996 0.74661773 -8.9987092 0.011854336
3.1 0.015678744 0.73008681 -2.1946882 0.011026578
3.2 0.015647863 0.71267894 4.6451469 0.01021579
3.3 0.015656565 0.69443614 11.529065 0.0094256048
3.4 0.015699918 0.67541678 18.465274 0.0086593256
3.5 0.015773597 0.65569773 25.462015 0.0079199534
3.6 0.015873974 0.63537103 32.527593 0.0072102047
3.7 0.015997772 0.61454792 39.670454 0.0065325224
3.8 0.016142165 0.59335533 46.899181 0.0058890877
3.9 0.016304693 0.57193479 54.222461 0.0052818271
4 0.016483168 0.55044182 61.648991 0.0047124172
4.1 0.016675663 0.52904308 69.18729 0.0041822889
4.2 0.016880501 0.50791314 76.845408 0.0036926307
4.3 0.017096166 0.48723258 84.630474 0.0032443894
4.4 0.017321342 0.46718285 92.548117 0.002838273
4.5 0.017554861 0.44794266 100.60171 0.0024747503
4.6 0.017795697 0.4296829 108.79148 0.0021540525
4.7 0.018042946 0.41256143 117.11355 0.0018761734
4.8 0.018295829 0.39671712 125.55896 0.0016408705
4.9 0.018553623 0.38226508 134.11287 0.0014476634
5 0.01881574 0.36928933 142.75425 0.0012958376
5.1 0.019081636 0.35783953 151.45584 0.0011844418
5.2 0.019350869 0.34792608 160.18512 0.0011122923
5.3 0.019623041 0.33951938 168.90567 0.0010779708
5.4 0.01989783 0.33254972 177.57941 0.0010798286
5.5 0.020174962 0.32691064 -173.83105 0.0011159866
5.6 0.020454225 0.32246379 -165.35997 0.0011843386
5.7 0.020735461 0.31904564 -157.03636 0.0012825543
5.8 0.021018562 0.31647488 -148.88257 0.0014080821
5.9 0.021303467 0.31455957 -140.91347 0.0015581531
6 0.021590174 0.3131036 -133.13634 0.0017297877
6.1 0.021878722 0.31191167 -125.55131 0.0019197987
6.2 0.02216923 0.31079325 -118.15193 0.0021248044
6.3 0.022461854 0.30956431 -110.92618 0.0023412305
6.4 0.022756826 0.30804857 -103.85714 0.0025653263
6.5 0.023054448 0.30607718 -96.923652 0.0027931757
6.6 0.023355099 0.30348775 -90.10068 0.0030207131
6.7 0.023659257 0.30012323 -83.359373 0.0032437442
6.8 0.023967489 0.29582983 -76.666722 0.0034579661
6.9 0.024280489 0.29045596 -69.984749 0.003659
7 0.024599078 0.28385062 -63.269031 0.0038424216
7.1 0.024924251 0.27586361 -56.466388 0.0040038101
7.2 0.025257159 0.26634605 -49.511051 0.0041387915
7.3 0.025599203 0.25515523 -42.318884 0.0042431168
7.4 0.025952005 0.2421628 -34.777591 0.00431273
7.5 0.026317526 0.22727375 -26.730963 0.0043438842
7.6 0.026698057 0.21046174 -17.951257 0.0043332591
7.7 0.027096371 0.19184065 -8.0917114 0.0042781391
7.8 0.027515716 0.17180833 3.3966931 0.0041766088
7.9 0.027960062 0.15132147 17.394586 0.0040276546
8 0.028434243 0.13249658 35.223903 0.0038316003
8.1 0.028943823 0.11960985 58.208704 0.0035913351
8.2 0.029495668 0.11895396 85.597423 0.0033119289
8.3 0.030098116 0.1351943 112.79864 0.0030018327
8.4 0.030761304 0.16743944 135.63653 0.0026740121
8.5 0.031497736 0.21175056 153.81185 0.0023475165
8.6 0.032322766 0.26459442 168.69666 0.0020496284
8.7 0.033255517 0.3233783 -178.48998 0.0018189156
8.8 0.034319882 0.38599911 -166.97558 0.001709562
8.9 0.03554615 0.45051085 -156.31419 0.0017976699
9 0.036972735 0.51502464 -146.26086 0.0021905051
9.1 0.038649267 0.57775374 -136.68973 0.0030404627
9.2 0.040640564 0.63713309 -127.54389 0.0045664833
9.3 0.043032448 0.69194207 -118.80376 0.0070877735
9.4 0.04594083 0.7413807 -110.46666 0.011078418
9.5 0.049525504 0.78508096 -102.53414 0.017258611
9.6 0.054012368 0.82305609 -95.004862 0.026752814
9.7 0.059731812 0.8556088 -87.871506 0.041376092
9.8 0.067185044 0.88323153 -81.120294 0.064179521
9.9 0.077171396 0.90651159 -74.731958 0.10055586
10 0.091045662 0.92605867 -68.683356 0.1606585
