!Mode: Constant current
!Vd_set [V]: 1.6

!Measurement start: 2021-02-22 17:17:17
!Measurement end: 2021-02-22 17:17:35
!Measurement length [s]: 17.90469479560852
!Saved by LNF Software Version: 0.9.109
# HZ S DB R 50
!Frequency        S11 dB  S11 DEG   S21 dB  S21 DEG   S12 dB  S12 DEG   S22 dB  S22 DEG
1.000000000000000e+08	1.973741300838645e-02	-3.704403002889208e+00	-5.948098397505311e+01	1.206246566890105e+01	-8.081372051777491e+01	-1.574728712737594e+02	-7.661021541075251e-03	-5.555426947711148e+00
2.000000000000000e+08	-9.090458671087176e-03	-7.567851659404658e+00	-6.152338397801859e+01	3.719042623262842e+01	-8.404829948710531e+01	-1.299517326772859e+02	-6.889963020562821e-03	-1.107029274051860e+01
3.000000000000000e+08	-2.539939969047445e-02	-1.128525663085904e+01	-6.152272954042436e+01	-7.772730362801533e+01	-8.297268100133246e+01	1.300485674020656e+02	-1.062696978708567e-02	-1.658958231526676e+01
4.000000000000000e+08	-7.364554486360730e-03	-1.526714413471877e+01	-6.364511738479723e+01	-1.887274755296967e+01	-7.949271427198039e+01	-1.254307980317871e+01	1.365805346724241e-02	-2.202336487739445e+01
5.000000000000000e+08	-1.765952194519282e-02	-1.880115210492883e+01	-6.341347810032444e+01	-1.461692183056579e+02	-7.952060100997451e+01	-1.718191777313407e+02	3.676243197885155e-02	-2.742952468299647e+01
6.000000000000000e+08	-1.325588577012462e-02	-2.268279762107519e+01	-6.815633748892844e+01	-1.127707466791105e+02	-8.713567067596605e+01	6.544316761611621e+01	1.067925642720520e-01	-3.333839474521791e+01
7.000000000000000e+08	-1.366026844972934e-02	-2.650208798283863e+01	-7.266599780811342e+01	1.589816040098313e+02	-8.263009456690044e+01	1.101436166612037e+01	9.395601856234885e-02	-3.950866880585517e+01
8.000000000000000e+08	-1.228403838926035e-02	-3.026493796781899e+01	-6.636112073450391e+01	-1.591669338676076e+02	-8.864183910667796e+01	-1.521962443816101e+02	1.169167610657334e-02	-4.526449428966328e+01
9.000000000000000e+08	-1.287047868645629e-02	-3.403413712602089e+01	-7.149532078922203e+01	1.132111158410712e+02	-8.643230599396419e+01	1.534858220628148e+01	-2.301576670821547e-02	-5.080934815083118e+01
1.000000000000000e+09	-1.242151345024289e-02	-3.772110705776841e+01	-7.042460946611028e+01	3.164439417263818e+01	-9.494565048857561e+01	4.921153280214662e+01	-5.829646677123955e-02	-5.635309992646488e+01
1.100000000000000e+09	-8.859223199263171e-03	-4.174593219094196e+01	-6.445342328836092e+01	9.603961610544091e+01	-8.668092575401403e+01	6.600115234246080e+01	-8.955088719904716e-02	-6.184545245959136e+01
1.200000000000000e+09	-1.878046328451188e-02	-4.542642638583728e+01	-7.121856068279081e+01	-9.346780279711275e+01	-9.001205937618073e+01	-3.809604281898460e+01	-1.311606504301438e-01	-6.722209100248359e+01
1.300000000000000e+09	-1.718219758880993e-02	-4.914081696779932e+01	-6.553538920653999e+01	-8.398301850761001e+01	-8.589075350936474e+01	4.347337031587828e+01	-1.497946661549642e-01	-7.259209537144687e+01
1.400000000000000e+09	5.978265123462966e-03	-5.311151927543348e+01	-6.623099379293849e+01	1.233435113396384e+02	-8.524977291724352e+01	4.943853471800488e+01	-1.782862406564688e-01	-7.807173916606729e+01
1.500000000000000e+09	-1.612692588900895e-02	-5.692712453152778e+01	-7.379203978164225e+01	1.034139282077843e+02	-9.709085156191580e+01	2.462537799505881e+01	-2.126316014781089e-01	-8.343500627507206e+01
1.600000000000000e+09	-2.244052412257637e-02	-6.072879948030893e+01	-6.536599625723306e+01	-1.327690118593502e+02	-9.469715398457291e+01	4.760505125602330e+01	-2.420361143657187e-01	-8.884971373494380e+01
1.700000000000000e+09	-2.031580015569408e-02	-6.446358888528857e+01	-6.304869571602715e+01	7.771259090555409e+01	-8.346645126782803e+01	-8.182647821387304e+00	-2.610179124073663e-01	-9.412858942654455e+01
1.800000000000000e+09	-1.107911292849387e-02	-6.836529971714327e+01	-7.068024926137652e+01	1.431691965015453e+02	-7.606991554515257e+01	-1.791778174507751e+02	-2.872179292828364e-01	-9.959160023580250e+01
1.900000000000000e+09	-2.664475819742876e-02	-7.216334154701838e+01	-7.073390651290879e+01	-1.048461359467839e+02	-9.182337059197705e+01	8.937583820614597e+01	-3.061094590561028e-01	-1.048747033032352e+02
2.000000000000000e+09	-3.041005963078859e-02	-7.581491652720646e+01	-6.236158649945697e+01	1.028159722164345e+02	-8.558864373342763e+01	-1.100457431578906e+02	-3.478675625705660e-01	-1.102780905596052e+02
2.100000000000000e+09	-3.941875266557775e-02	-7.964161955092308e+01	-5.989085769285560e+01	3.828650291728112e+01	-8.661073720929443e+01	-3.900381544008027e+01	-3.733672069788592e-01	-1.154911253865855e+02
2.200000000000000e+09	-3.253552761452373e-02	-8.352182501120102e+01	-6.174882435326505e+01	-1.535330677245452e+02	-9.147094286965172e+01	1.198643446596980e+02	-3.943041391253638e-01	-1.209102112759369e+02
2.300000000000000e+09	-2.207089648393631e-02	-8.731599585896204e+01	-6.664679252875405e+01	-1.506607316339351e+02	-7.948025704415041e+01	-5.056413705329777e+01	-4.244705815258840e-01	-1.262428370459318e+02
2.400000000000000e+09	-4.980983196460731e-02	-9.124218848462432e+01	-6.713883788991875e+01	1.828507394530899e+01	-8.140087045586085e+01	-1.200849619576935e+02	-4.543929395035284e-01	-1.316096482922391e+02
2.500000000000000e+09	-2.103695853967911e-02	-9.493549483457392e+01	-8.675862086261306e+01	-1.357067801822370e+02	-8.530439875879529e+01	1.554835389825055e+02	-4.900693153827363e-01	-1.369366564009856e+02
2.600000000000000e+09	-3.275263259051851e-02	-9.879845721682435e+01	-5.840649346753896e+01	-2.651210419846863e+01	-7.734595521384671e+01	-1.701192668538790e+02	-5.090872731504115e-01	-1.422650085350068e+02
2.700000000000000e+09	-9.286751451407888e-03	-1.026318195053326e+02	-6.634291745434732e+01	-1.766902483442013e+02	-8.133220381788277e+01	1.085311803058758e+02	-5.351633281434711e-01	-1.476488466969823e+02
2.800000000000000e+09	-2.385919755732109e-02	-1.064199675715322e+02	-6.114984935825906e+01	-1.406543300306674e+02	-7.823376310733549e+01	9.874871661585081e+01	-5.567538606445623e-01	-1.529579586085933e+02
2.900000000000000e+09	-2.517264553551420e-02	-1.103642105213973e+02	-6.761174417574254e+01	4.801451046018794e+01	-8.682719292639824e+01	-8.139371084345142e+01	-5.909779047915953e-01	-1.584021654087726e+02
3.000000000000000e+09	-3.844983875390019e-02	-1.140393500404526e+02	-7.279423448099968e+01	-5.025018457514464e+01	-7.990855750865494e+01	-8.009391833866239e+01	-6.175382471422697e-01	-1.637004380104873e+02
3.100000000000000e+09	-2.200811967526521e-02	-1.179526702999032e+02	-6.502367511789892e+01	1.728728534184012e+02	-8.084278672424975e+01	3.836245367156214e+01	-6.498231977574793e-01	-1.690920350134855e+02
3.200000000000000e+09	-4.057527276128662e-03	-1.219065379737858e+02	-6.453601173740373e+01	-1.464511005979895e+02	-7.926062466610468e+01	1.723592348416947e+02	-6.718586845654442e-01	-1.743812342657723e+02
3.300000000000000e+09	-3.397285682028866e-02	-1.256288869648474e+02	-6.408514260655865e+01	-9.593060244448637e+01	-8.255700411038137e+01	1.624984950463767e+02	-6.984165577565692e-01	-1.797829845972603e+02
3.400000000000000e+09	-4.169777326186852e-02	-1.296027654627309e+02	-7.119154515718122e+01	-1.606710931844543e+02	-8.144413944353940e+01	8.909465208043123e+01	-7.301452620355218e-01	1.748995060952049e+02
3.500000000000000e+09	-3.954013991913312e-02	-1.333558188590261e+02	-6.905843915699735e+01	1.182065816505717e+02	-8.642816018805421e+01	-2.631353844307239e+01	-7.589081783461431e-01	1.695405971381650e+02
3.600000000000000e+09	-2.487235658761560e-02	-1.373659849444554e+02	-5.995143198025914e+01	-1.008049933801404e+02	-8.198870644135489e+01	-1.374208017486592e+02	-7.877871060046917e-01	1.643095346942729e+02
3.700000000000000e+09	-3.591317701287505e-02	-1.411890512272294e+02	-6.372111446180384e+01	4.785423599976644e+01	-8.027394750789347e+01	-1.043725894432833e+02	-8.093248812572300e-01	1.589451586466316e+02
3.800000000000000e+09	-2.206975904993976e-02	-1.451848042793529e+02	-6.798416718967678e+01	-1.604368626273689e+02	-8.746299471028543e+01	9.401437104928232e+01	-8.396081568873111e-01	1.536794032750476e+02
3.900000000000000e+09	-6.370207727508155e-02	-1.490684684102888e+02	-7.298339448773140e+01	7.698848528522210e+01	-9.008227710623811e+01	-1.173777499898002e+02	-8.661933521578602e-01	1.483098186691079e+02
4.000000000000000e+09	-2.736228295035005e-02	-1.528457726316057e+02	-6.892523150651134e+01	-1.663730485361624e+02	-8.743662799441293e+01	1.658224844341229e+00	-9.022468636721054e-01	1.431653968750457e+02
4.100000000000000e+09	-6.156586047975080e-02	-1.567241830820533e+02	-7.093247812199670e+01	1.140180288864156e+01	-8.227992632981758e+01	1.375825595823917e+02	-9.253974643579117e-01	1.378440106660728e+02
4.200000000000000e+09	-4.287644417735588e-02	-1.607219177105120e+02	-7.055282638455058e+01	-1.070398220430064e+02	-8.334094755878797e+01	-7.438490106810101e+00	-9.600222690519480e-01	1.326384614060308e+02
4.300000000000000e+09	-4.412637796285788e-02	-1.648130416964475e+02	-6.560014718722401e+01	1.471626736195541e+02	-8.295994292175050e+01	9.871880530866616e+00	-9.793942369046320e-01	1.273516967360947e+02
4.400000000000000e+09	-5.890662327193369e-02	-1.686935071954954e+02	-7.002898113396527e+01	-1.280468355636683e+02	-8.141981649749042e+01	-8.931703653525386e+01	-1.019209730230221e+00	1.221584898422663e+02
4.500000000000000e+09	-6.618488503590733e-02	-1.724896293337263e+02	-6.931006473485647e+01	1.707809099466919e+02	-8.699584557131027e+01	2.039421056033179e+01	-1.044507620930644e+00	1.168833865623370e+02
4.600000000000000e+09	-5.799834414461089e-02	-1.765078396553687e+02	-7.007992195925392e+01	-1.172752203210470e+02	-8.765714380448128e+01	9.765043432520615e+01	-1.087809653511769e+00	1.116933279908718e+02
4.700000000000000e+09	-5.044246812160395e-02	1.794433137961337e+02	-6.702753518923083e+01	5.057372612344952e+01	-7.858338371149416e+01	-8.133312742625776e+01	-1.107498760093293e+00	1.064083113367755e+02
4.800000000000000e+09	-5.735850959987989e-02	1.756357634364616e+02	-7.976133792143199e+01	1.442071848235449e+02	-8.126698848918809e+01	7.204036296486258e+01	-1.145590333641648e+00	1.012167959128895e+02
4.900000000000000e+09	-7.240427812453158e-02	1.715562528231367e+02	-7.727886833573015e+01	-5.502098002009373e+01	-8.446515285461437e+01	-1.528972356262897e+02	-1.174469734233866e+00	9.599358807019817e+01
5.000000000000000e+09	-3.993284461994079e-02	1.677263283364622e+02	-7.473315800848354e+01	3.613776068844162e+01	-7.780033581916739e+01	-5.435304897897139e+01	-1.222832947903213e+00	9.070544966709363e+01
5.100000000000000e+09	-7.273474692499668e-02	1.637194715640510e+02	-6.693522708639887e+01	-1.130281213476965e+02	-8.684734603345915e+01	1.523981631399688e+02	-1.254454996308844e+00	8.555442584918701e+01
5.200000000000000e+09	-5.040743844875579e-02	1.598110552119266e+02	-6.515324498002431e+01	-9.565060279735228e+01	-8.418876219349605e+01	-1.508663663235233e+02	-1.294311081981010e+00	8.025593153322757e+01
5.300000000000000e+09	-8.468551127138618e-02	1.557791878883506e+02	-6.568320206044375e+01	-6.695719239255264e+01	-8.206272879177439e+01	-1.720624320137179e+02	-1.329033133777870e+00	7.510664452947806e+01
5.400000000000000e+09	-5.924418704130074e-02	1.517666025774707e+02	-7.552579031657351e+01	-1.330902490621690e+02	-8.894242695077922e+01	8.804523118635905e+01	-1.375665203473593e+00	6.977243281158911e+01
5.500000000000000e+09	-9.243883232969477e-02	1.477739263920261e+02	-5.837206573523482e+01	-1.392418096974330e+02	-9.261078820467199e+01	-7.383532995660421e+01	-1.416820205017603e+00	6.465983696124766e+01
5.600000000000000e+09	-7.485996234897438e-02	1.438701064753224e+02	-6.523682800241278e+01	2.303072089169789e+01	-8.263975140868013e+01	1.739290760378517e+02	-1.463184174958853e+00	5.933197538653412e+01
5.700000000000000e+09	-7.729342118888789e-02	1.399658281929704e+02	-7.911384354293601e+01	1.500015811233017e+02	-9.338087769901996e+01	-4.418913452680304e+01	-1.501178676044366e+00	5.427392680320163e+01
5.800000000000000e+09	-8.000405482370666e-02	1.359484580236499e+02	-7.247578262078237e+01	-2.142013548352966e+01	-8.327547189226939e+01	-1.311957484720469e+02	-1.549132537898283e+00	4.896805317022451e+01
5.900000000000000e+09	-7.833348612696892e-02	1.319023058777097e+02	-6.438754643204938e+01	1.164551224187663e+02	-8.961543485759968e+01	-1.737114029079080e+02	-1.587158214922605e+00	4.388649146440465e+01
6.000000000000000e+09	-8.362494922274702e-02	1.279953985074431e+02	-6.311716515659988e+01	-4.161485658458510e+01	-8.666129585033438e+01	-3.654841184518751e+01	-1.633822952076501e+00	3.857634446863698e+01
6.100000000000000e+09	-7.095197433290662e-02	1.238247044834639e+02	-7.017601710397186e+01	-1.719109480778429e+02	-8.439535587406581e+01	-9.278160142070950e+00	-1.681946957737004e+00	3.359537030946513e+01
6.200000000000000e+09	-7.312970670308959e-02	1.199931017635520e+02	-6.664687220927270e+01	-1.699544258110025e+02	-8.855585447140768e+01	7.766064501953265e+01	-1.728182010217947e+00	2.833099591258578e+01
6.300000000000000e+09	-9.273449060499664e-02	1.159115304948489e+02	-6.786026518947763e+01	1.699579186133144e+02	-8.534385596847687e+01	-3.896148083475983e+01	-1.780010084299963e+00	2.333063983357504e+01
6.400000000000000e+09	-8.356885712374799e-02	1.118759571685058e+02	-7.181423685009855e+01	-9.926320651044577e+01	-9.391552335521820e+01	2.540205713043616e+01	-1.821064125521354e+00	1.812257139526661e+01
6.500000000000000e+09	-9.271450987055610e-02	1.077538901038596e+02	-6.864519461623269e+01	-7.382481211004637e+01	-8.721854325752321e+01	1.175183548900474e+02	-1.872540281923478e+00	1.311667334112466e+01
6.600000000000000e+09	-9.961223568040176e-02	1.039709668326814e+02	-6.493736788155032e+01	-1.354852840343260e+02	-8.079348747436832e+01	9.434391914838170e+01	-1.914937975388591e+00	7.982596273006902e+00
6.700000000000000e+09	-9.805127404705676e-02	9.967893725987726e+01	-7.364597402173671e+01	-1.773181026925901e+02	-8.312194271458488e+01	-3.220830398544781e+01	-1.978120307234252e+00	2.888164178373075e+00
6.800000000000000e+09	-1.060814341577414e-01	9.575110994536605e+01	-6.173662818559862e+01	-7.128057483242043e+01	-8.900948040453312e+01	-1.001970492372825e+02	-2.014387614572767e+00	-2.210786960002902e+00
6.900000000000000e+09	-9.291676260802831e-02	9.146725080466615e+01	-6.372351645098124e+01	1.400460980357055e+02	-9.404508539997153e+01	1.231564285874241e+02	-2.081166287699642e+00	-7.299397867359271e+00
7.000000000000000e+09	-1.015636710718529e-01	8.759893252693644e+01	-6.337247320793931e+01	5.116704117104538e+01	-8.600821673248448e+01	2.972952762679295e+01	-2.136330452274618e+00	-1.228883924274015e+01
7.100000000000000e+09	-1.002411825722557e-01	8.346866056721069e+01	-6.770728455690735e+01	-7.755514977278273e+01	-8.418447617590223e+01	-1.764256345873446e+02	-2.210413199689288e+00	-1.753011377653829e+01
7.200000000000000e+09	-1.128487880056923e-01	7.930733457511047e+01	-7.167478011175390e+01	-1.457141551019951e+00	-8.471565026306004e+01	9.472400868124002e+01	-2.288258219433089e+00	-2.245665071585881e+01
7.300000000000000e+09	-1.103830902546769e-01	7.514741428135434e+01	-7.412795011751535e+01	-5.830581749742662e+00	-8.359165794081105e+01	-9.832134226088425e+01	-2.371978141936275e+00	-2.753820935677269e+01
7.400000000000000e+09	-1.049687027941065e-01	7.117566645292285e+01	-6.330466154119559e+01	-9.503209443157888e+01	-8.128538202074401e+01	-6.087403813722133e+01	-2.423045473543192e+00	-3.220531521895336e+01
7.500000000000000e+09	-9.582738176220584e-02	6.708304274523859e+01	-6.369600948541675e+01	-3.771600199694745e+01	-8.795962285525037e+01	-9.457659083691534e+01	-2.483818814937548e+00	-3.739913874179731e+01
7.600000000000000e+09	-1.134752778622811e-01	6.300213715137632e+01	-6.123853723675027e+01	-4.535604932473198e+01	-8.281539147124691e+01	6.399509328802046e+01	-2.537613875602969e+00	-4.225204985241820e+01
7.700000000000000e+09	-1.094920259251647e-01	5.879176189502913e+01	-7.474820023852008e+01	-4.996248679799999e+01	-8.640393054165708e+01	-1.391512860841625e+02	-2.606941926398751e+00	-4.747074075385174e+01
7.800000000000000e+09	-1.182277854932029e-01	5.475362450945204e+01	-7.257026773909695e+01	3.907991435277344e+01	-8.647640781955529e+01	1.262665664774019e+02	-2.666561458273539e+00	-5.219830945403050e+01
7.900000000000000e+09	-1.079378025972183e-01	5.059743434489689e+01	-7.232640959228316e+01	1.393469596067505e+02	-8.857996131442849e+01	-3.798531489829666e+01	-2.729700325666571e+00	-5.745701796676795e+01
8.000000000000000e+09	-1.308778494967535e-01	4.671027713449139e+01	-6.129402531428883e+01	1.480759712820146e+02	-8.471604474701246e+01	1.772732838611259e+01	-2.796870408965145e+00	-6.225354849062727e+01
8.100000000000000e+09	-1.405784712450681e-01	4.245129243558625e+01	-6.229368359089348e+01	-1.484184437599046e+02	-9.190201903610878e+01	-6.215001547700619e+01	-2.855096151412758e+00	-6.745113368752024e+01
8.200000000000000e+09	-1.196598126768097e-01	3.805557274960951e+01	-6.828177756562802e+01	1.483893587761166e+02	-8.522954074203420e+01	9.294538890196108e+01	-2.940171007624222e+00	-7.219137482974378e+01
8.300000000000000e+09	-9.789561385965916e-02	3.403898260569507e+01	-6.256834566636901e+01	1.207366080533197e+02	-8.695011176155077e+01	1.356936843357070e+01	-2.993239396034451e+00	-7.740036234365735e+01
8.400000000000000e+09	-1.258090278367336e-01	3.003134595644841e+01	-6.338658298198482e+01	-1.164078451278517e+02	-8.268104631264325e+01	6.000777567510561e+01	-3.081001717562816e+00	-8.212193349604951e+01
8.500000000000000e+09	-1.196149563461361e-01	2.621094522345243e+01	-6.780075376559290e+01	1.012668171182565e+01	-8.357893384954231e+01	8.631893630423590e+01	-3.113046556461283e+00	-8.719490893722389e+01
8.600000000000000e+09	-1.442508364717836e-01	2.204055652435845e+01	-6.722048036697463e+01	-6.713284682900787e+01	-8.590568032870452e+01	1.603630072201633e+02	-3.219429530874722e+00	-9.197876538942089e+01
8.700000000000000e+09	-1.181602624475633e-01	1.776250284469388e+01	-6.472169710061677e+01	-1.066183051930074e+02	-9.801261602916844e+01	1.649563143904356e+02	-3.252478008155966e+00	-9.701997056313159e+01
8.800000000000000e+09	-1.233785531717466e-01	1.351545482048981e+01	-6.337465089489694e+01	3.052347475952433e+01	-8.591158190517781e+01	1.096943878170149e+02	-3.369586975035191e+00	-1.018124277530120e+02
8.900000000000000e+09	-1.152014364650521e-01	9.598028757685695e+00	-6.721494484649608e+01	-4.701393845018657e+01	-7.875621076949034e+01	-5.623112004882078e+01	-3.413396775949364e+00	-1.067642916486080e+02
9.000000000000000e+09	-1.396889067651728e-01	5.525411898368697e+00	-6.499617543611321e+01	8.820150162253807e+01	-8.636377775139653e+01	-7.285132057982452e+01	-3.519667442122621e+00	-1.116417489343071e+02
9.100000000000000e+09	-1.192754279201405e-01	1.369555412615798e+00	-6.752724706985146e+01	1.476348556346488e+02	-7.789830337829849e+01	-7.292916453178677e+01	-3.578811369585298e+00	-1.163910843644187e+02
9.200000000000000e+09	-1.296377052776392e-01	-3.092682259918285e+00	-7.998057640192766e+01	-1.607073742135414e+02	-8.272237904750213e+01	-1.546533240857510e+02	-3.666189177841475e+00	-1.214036142792808e+02
9.300000000000000e+09	-1.295250539083573e-01	-6.990562202289709e+00	-7.313951756654615e+01	1.356391669114405e+02	-8.483182974989995e+01	-6.231357403547399e+01	-3.735281501346437e+00	-1.259768115926850e+02
9.400000000000000e+09	-1.319987492489735e-01	-1.125373277789427e+01	-7.988830272791573e+01	-4.632044159926942e+01	-8.308026194216525e+01	3.552007801431311e+01	-3.849140590557605e+00	-1.310205410005949e+02
9.500000000000000e+09	-1.283573951423061e-01	-1.527044718506624e+01	-6.043983655955074e+01	1.175681160503247e+02	-9.095568457150489e+01	3.571763435266617e+01	-3.918119432164354e+00	-1.355762397166760e+02
