!Created: 06-14-2018 at 14:09:34
!Mini-Circuits
!S2P DATA File Format
!Type: MMIC ATTENUATOR
!MODEL: KAT-20+
!S/N: U1_+25C
!TEST CONDITIONS: Z:50 OHM SYSTEM, INPUT POWER = 0dBm, TEMP:+25°C
!REMARK: KAT-20+ is on TB-934-20C+. 2.4MM Two Port Calibration, N4693A, S/N 12931. Thru-Line on: TB-934-20C+
!	 Expansion and contraction of cables inside the oven not accounted for.
!TESTED ON: NETWORK ANALYZER MODEL AG N5242A S/N 74837 CAL DUE DATE 11/02/18

# MHZ S DB R 50
!Frequency          S11 dB    S11 DEG     S21 dB    S21 DEG     S12 dB    S12 DEG     S22 dB    S22 DEG
 100.0000     -2.453294E+001  1.695008E+002 -2.003486E+001 -3.285230E-001 -2.004024E+001 -3.194782E-001 -2.447551E+001  1.683808E+002
 200.0000     -2.468338E+001  1.609978E+002 -2.004086E+001 -5.460601E-001 -2.004393E+001 -5.704186E-001 -2.460026E+001  1.591030E+002
 300.0000     -2.476302E+001  1.531999E+002 -2.003896E+001 -7.933735E-001 -2.004496E+001 -8.018426E-001 -2.465518E+001  1.506486E+002
 400.0000     -2.483921E+001  1.455133E+002 -2.003927E+001 -1.035367E+000 -2.004157E+001 -1.054697E+000 -2.472459E+001  1.423931E+002
 500.0000     -2.488918E+001  1.376317E+002 -2.003869E+001 -1.298207E+000 -2.004491E+001 -1.309893E+000 -2.477132E+001  1.336658E+002
 600.0000     -2.492031E+001  1.293990E+002 -2.004131E+001 -1.554415E+000 -2.004614E+001 -1.570843E+000 -2.475877E+001  1.246616E+002
 700.0000     -2.495029E+001  1.214537E+002 -2.004510E+001 -1.810685E+000 -2.004703E+001 -1.827102E+000 -2.465388E+001  1.158468E+002
 800.0000     -2.498641E+001  1.137921E+002 -2.004603E+001 -2.061918E+000 -2.004948E+001 -2.081333E+000 -2.453582E+001  1.076749E+002
 900.0000     -2.500626E+001  1.060179E+002 -2.004678E+001 -2.303650E+000 -2.005171E+001 -2.326144E+000 -2.444975E+001  1.001090E+002
1000.0000     -2.503525E+001  9.806519E+001 -2.004870E+001 -2.542170E+000 -2.005209E+001 -2.568473E+000 -2.445144E+001  9.225925E+001
1100.0000     -2.506894E+001  8.997400E+001 -2.004962E+001 -2.793286E+000 -2.005484E+001 -2.809598E+000 -2.447776E+001  8.380173E+001
1200.0000     -2.504972E+001  8.210781E+001 -2.005226E+001 -3.039796E+000 -2.005478E+001 -3.059070E+000 -2.443211E+001  7.478885E+001
1300.0000     -2.500302E+001  7.392918E+001 -2.005270E+001 -3.285023E+000 -2.005613E+001 -3.301237E+000 -2.418302E+001  6.588231E+001
1400.0000     -2.495945E+001  6.587220E+001 -2.005553E+001 -3.530396E+000 -2.005822E+001 -3.544615E+000 -2.386026E+001  5.751657E+001
1500.0000     -2.487372E+001  5.800147E+001 -2.005746E+001 -3.770445E+000 -2.005898E+001 -3.790745E+000 -2.353762E+001  5.037490E+001
1600.0000     -2.477233E+001  5.021120E+001 -2.005650E+001 -4.008246E+000 -2.006026E+001 -4.017309E+000 -2.328910E+001  4.383126E+001
1700.0000     -2.462842E+001  4.247016E+001 -2.005741E+001 -4.232587E+000 -2.006137E+001 -4.258992E+000 -2.310867E+001  3.718723E+001
1800.0000     -2.450667E+001  3.481481E+001 -2.005746E+001 -4.480190E+000 -2.006160E+001 -4.494030E+000 -2.298262E+001  3.028194E+001
1900.0000     -2.438050E+001  2.773433E+001 -2.005663E+001 -4.717927E+000 -2.006238E+001 -4.730645E+000 -2.282264E+001  2.323070E+001
2000.0000     -2.427854E+001  2.051182E+001 -2.005680E+001 -4.951108E+000 -2.006013E+001 -4.969800E+000 -2.260733E+001  1.650758E+001
2100.0000     -2.418389E+001  1.299081E+001 -2.005576E+001 -5.188816E+000 -2.005965E+001 -5.211411E+000 -2.238603E+001  1.024749E+001
2200.0000     -2.407821E+001  5.554408E+000 -2.005544E+001 -5.428546E+000 -2.005770E+001 -5.453179E+000 -2.225334E+001  4.333852E+000
2300.0000     -2.392032E+001 -1.607796E+000 -2.005285E+001 -5.670566E+000 -2.005710E+001 -5.686206E+000 -2.220656E+001 -1.662551E+000
2400.0000     -2.374936E+001 -8.692301E+000 -2.005118E+001 -5.911229E+000 -2.005564E+001 -5.926938E+000 -2.222010E+001 -8.283245E+000
2500.0000     -2.362813E+001 -1.599690E+001 -2.004761E+001 -6.163340E+000 -2.005216E+001 -6.171805E+000 -2.221311E+001 -1.574814E+001
2600.0000     -2.347041E+001 -2.308402E+001 -2.004465E+001 -6.415859E+000 -2.004892E+001 -6.426452E+000 -2.208998E+001 -2.351430E+001
2700.0000     -2.326842E+001 -3.026313E+001 -2.004489E+001 -6.666516E+000 -2.004801E+001 -6.680983E+000 -2.185510E+001 -3.121347E+001
2800.0000     -2.305108E+001 -3.711537E+001 -2.004381E+001 -6.919834E+000 -2.004744E+001 -6.947124E+000 -2.151946E+001 -3.799228E+001
2900.0000     -2.283599E+001 -4.393622E+001 -2.004282E+001 -7.181377E+000 -2.004646E+001 -7.192627E+000 -2.122524E+001 -4.405812E+001
3000.0000     -2.262480E+001 -5.034362E+001 -2.004118E+001 -7.425239E+000 -2.004546E+001 -7.456291E+000 -2.100298E+001 -4.973011E+001
3100.0000     -2.238586E+001 -5.657788E+001 -2.004133E+001 -7.678745E+000 -2.004613E+001 -7.706229E+000 -2.086302E+001 -5.545831E+001
3200.0000     -2.221257E+001 -6.277443E+001 -2.004157E+001 -7.929088E+000 -2.004400E+001 -7.952652E+000 -2.073615E+001 -6.142785E+001
3300.0000     -2.208281E+001 -6.873186E+001 -2.003826E+001 -8.188944E+000 -2.004310E+001 -8.201907E+000 -2.061224E+001 -6.757546E+001
3400.0000     -2.194705E+001 -7.487194E+001 -2.003926E+001 -8.446683E+000 -2.004244E+001 -8.468628E+000 -2.043736E+001 -7.357765E+001
3500.0000     -2.183725E+001 -8.093542E+001 -2.003825E+001 -8.709121E+000 -2.004372E+001 -8.725445E+000 -2.026495E+001 -7.908443E+001
3600.0000     -2.174072E+001 -8.703448E+001 -2.003606E+001 -8.982824E+000 -2.004039E+001 -8.988329E+000 -2.011116E+001 -8.424270E+001
3700.0000     -2.166741E+001 -9.318739E+001 -2.003737E+001 -9.230005E+000 -2.004032E+001 -9.245705E+000 -2.005255E+001 -8.915837E+001
3800.0000     -2.156033E+001 -9.938671E+001 -2.003404E+001 -9.497738E+000 -2.003842E+001 -9.509021E+000 -2.011285E+001 -9.437039E+001
3900.0000     -2.145027E+001 -1.059345E+002 -2.003166E+001 -9.762826E+000 -2.003571E+001 -9.781044E+000 -2.022019E+001 -9.998820E+001
4000.0000     -2.131993E+001 -1.119860E+002 -2.002895E+001 -1.004007E+001 -2.003444E+001 -1.006366E+001 -2.029934E+001 -1.067069E+002
4100.0000     -2.118353E+001 -1.182052E+002 -2.002946E+001 -1.032848E+001 -2.003485E+001 -1.034129E+001 -2.026819E+001 -1.135703E+002
4200.0000     -2.102641E+001 -1.242673E+002 -2.002887E+001 -1.060228E+001 -2.003500E+001 -1.062218E+001 -2.015692E+001 -1.203036E+002
4300.0000     -2.085628E+001 -1.302712E+002 -2.003317E+001 -1.087332E+001 -2.003611E+001 -1.089091E+001 -1.997661E+001 -1.260709E+002
4400.0000     -2.071415E+001 -1.359425E+002 -2.003193E+001 -1.113969E+001 -2.003971E+001 -1.115210E+001 -1.989084E+001 -1.317221E+002
4500.0000     -2.058346E+001 -1.415025E+002 -2.003386E+001 -1.139744E+001 -2.003942E+001 -1.141951E+001 -1.988980E+001 -1.372571E+002
4600.0000     -2.045871E+001 -1.474236E+002 -2.003242E+001 -1.166643E+001 -2.003661E+001 -1.168650E+001 -1.991217E+001 -1.433700E+002
4700.0000     -2.031285E+001 -1.530308E+002 -2.003456E+001 -1.194296E+001 -2.003951E+001 -1.194878E+001 -1.987033E+001 -1.500019E+002
4800.0000     -2.017615E+001 -1.585160E+002 -2.003453E+001 -1.221832E+001 -2.004118E+001 -1.223296E+001 -1.977160E+001 -1.567979E+002
4900.0000     -2.010420E+001 -1.637958E+002 -2.003593E+001 -1.248478E+001 -2.004136E+001 -1.251235E+001 -1.956071E+001 -1.629021E+002
5000.0000     -2.000703E+001 -1.694575E+002 -2.004080E+001 -1.275466E+001 -2.004559E+001 -1.277436E+001 -1.937026E+001 -1.684135E+002
5100.0000     -1.993634E+001 -1.751420E+002 -2.004488E+001 -1.302245E+001 -2.004825E+001 -1.304236E+001 -1.922341E+001 -1.736388E+002
5200.0000     -1.979828E+001  1.795344E+002 -2.004810E+001 -1.328155E+001 -2.005130E+001 -1.329883E+001 -1.915750E+001 -1.787090E+002
5300.0000     -1.970048E+001  1.742155E+002 -2.005162E+001 -1.352676E+001 -2.005624E+001 -1.354696E+001 -1.912617E+001  1.762489E+002
5400.0000     -1.964274E+001  1.689835E+002 -2.005265E+001 -1.378455E+001 -2.005828E+001 -1.380940E+001 -1.912840E+001  1.709912E+002
5500.0000     -1.959879E+001  1.636032E+002 -2.005747E+001 -1.404408E+001 -2.006190E+001 -1.408058E+001 -1.914453E+001  1.654125E+002
5600.0000     -1.956533E+001  1.584830E+002 -2.005902E+001 -1.427540E+001 -2.006343E+001 -1.430808E+001 -1.915093E+001  1.599900E+002
5700.0000     -1.952886E+001  1.530156E+002 -2.006331E+001 -1.454286E+001 -2.006820E+001 -1.456478E+001 -1.912743E+001  1.545055E+002
5800.0000     -1.953208E+001  1.474224E+002 -2.006771E+001 -1.478151E+001 -2.007326E+001 -1.479796E+001 -1.916036E+001  1.495225E+002
5900.0000     -1.945839E+001  1.419156E+002 -2.006695E+001 -1.503192E+001 -2.007326E+001 -1.504700E+001 -1.928522E+001  1.441681E+002
6000.0000     -1.937373E+001  1.365008E+002 -2.006821E+001 -1.525517E+001 -2.007566E+001 -1.527342E+001 -1.944466E+001  1.384250E+002
6100.0000     -1.931187E+001  1.313478E+002 -2.006985E+001 -1.551316E+001 -2.007447E+001 -1.553117E+001 -1.960157E+001  1.316713E+002
6200.0000     -1.926880E+001  1.260083E+002 -2.007421E+001 -1.576423E+001 -2.007935E+001 -1.579487E+001 -1.960120E+001  1.243577E+002
6300.0000     -1.921493E+001  1.209161E+002 -2.007779E+001 -1.603741E+001 -2.008191E+001 -1.605740E+001 -1.946844E+001  1.171908E+002
6400.0000     -1.910392E+001  1.158718E+002 -2.008077E+001 -1.626415E+001 -2.008527E+001 -1.627802E+001 -1.918588E+001  1.111321E+002
6500.0000     -1.905563E+001  1.111900E+002 -2.008595E+001 -1.650785E+001 -2.009011E+001 -1.653188E+001 -1.895892E+001  1.061846E+002
6600.0000     -1.902399E+001  1.069111E+002 -2.008744E+001 -1.670910E+001 -2.009336E+001 -1.672705E+001 -1.881622E+001  1.016413E+002
6700.0000     -1.903939E+001  1.024054E+002 -2.009023E+001 -1.695056E+001 -2.009476E+001 -1.695877E+001 -1.877626E+001  9.732334E+001
6800.0000     -1.906678E+001  9.811390E+001 -2.008555E+001 -1.714230E+001 -2.009187E+001 -1.715888E+001 -1.879239E+001  9.288437E+001
6900.0000     -1.915139E+001  9.366869E+001 -2.008576E+001 -1.735876E+001 -2.009084E+001 -1.737913E+001 -1.885686E+001  8.837897E+001
7000.0000     -1.928780E+001  8.916361E+001 -2.008538E+001 -1.758307E+001 -2.008910E+001 -1.759613E+001 -1.893288E+001  8.337836E+001
7100.0000     -1.939285E+001  8.410041E+001 -2.007768E+001 -1.780637E+001 -2.008427E+001 -1.782355E+001 -1.901500E+001  7.857803E+001
7200.0000     -1.950144E+001  7.900664E+001 -2.007961E+001 -1.803710E+001 -2.008525E+001 -1.805799E+001 -1.911083E+001  7.364278E+001
7300.0000     -1.955085E+001  7.417695E+001 -2.007428E+001 -1.825802E+001 -2.008015E+001 -1.827183E+001 -1.921063E+001  6.880975E+001
7400.0000     -1.968115E+001  6.904938E+001 -2.006751E+001 -1.851291E+001 -2.007426E+001 -1.851553E+001 -1.937650E+001  6.365445E+001
7500.0000     -1.974199E+001  6.398923E+001 -2.006237E+001 -1.874992E+001 -2.006954E+001 -1.876015E+001 -1.954579E+001  5.821158E+001
7600.0000     -1.976143E+001  5.868069E+001 -2.006092E+001 -1.901478E+001 -2.006466E+001 -1.903581E+001 -1.969849E+001  5.199788E+001
7700.0000     -1.978755E+001  5.419098E+001 -2.006204E+001 -1.926316E+001 -2.006681E+001 -1.928118E+001 -1.969811E+001  4.558425E+001
7800.0000     -1.981716E+001  4.965601E+001 -2.005572E+001 -1.956513E+001 -2.006061E+001 -1.958279E+001 -1.962034E+001  3.961111E+001
7900.0000     -1.990595E+001  4.537607E+001 -2.004931E+001 -1.978624E+001 -2.005431E+001 -1.980272E+001 -1.945623E+001  3.465650E+001
8000.0000     -1.997520E+001  4.107002E+001 -2.004719E+001 -2.003380E+001 -2.005254E+001 -2.004362E+001 -1.938783E+001  3.065907E+001
8100.0000     -2.006660E+001  3.689126E+001 -2.003552E+001 -2.027980E+001 -2.004212E+001 -2.030480E+001 -1.944559E+001  2.682201E+001
8200.0000     -2.020940E+001  3.310249E+001 -2.003301E+001 -2.057219E+001 -2.003900E+001 -2.058572E+001 -1.960435E+001  2.289364E+001
8300.0000     -2.038259E+001  2.889581E+001 -2.002347E+001 -2.082418E+001 -2.002946E+001 -2.083877E+001 -1.978564E+001  1.831001E+001
8400.0000     -2.058465E+001  2.478448E+001 -2.001565E+001 -2.112094E+001 -2.002115E+001 -2.113396E+001 -1.994572E+001  1.324235E+001
8500.0000     -2.072898E+001  2.064020E+001 -2.001606E+001 -2.140590E+001 -2.002228E+001 -2.141538E+001 -2.003141E+001  8.192612E+000
8600.0000     -2.096836E+001  1.673381E+001 -2.000694E+001 -2.170134E+001 -2.001193E+001 -2.171853E+001 -2.007830E+001  3.614763E+000
8700.0000     -2.119896E+001  1.271328E+001 -2.000778E+001 -2.193026E+001 -2.001183E+001 -2.195172E+001 -2.014220E+001 -5.111586E-001
8800.0000     -2.146507E+001  8.124646E+000 -2.000062E+001 -2.223161E+001 -2.000611E+001 -2.224300E+001 -2.024214E+001 -4.333469E+000
8900.0000     -2.165573E+001  3.995770E+000 -2.000044E+001 -2.251886E+001 -2.000484E+001 -2.253058E+001 -2.041954E+001 -8.162480E+000
9000.0000     -2.188714E+001 -3.155574E-001 -1.999526E+001 -2.285862E+001 -2.000132E+001 -2.287180E+001 -2.064994E+001 -1.186744E+001
9100.0000     -2.213465E+001 -4.166049E+000 -1.999027E+001 -2.310933E+001 -1.999531E+001 -2.311740E+001 -2.089307E+001 -1.592774E+001
9200.0000     -2.239179E+001 -8.647476E+000 -1.998319E+001 -2.345146E+001 -1.998886E+001 -2.346321E+001 -2.114434E+001 -2.026215E+001
9300.0000     -2.261667E+001 -1.276744E+001 -1.998823E+001 -2.372211E+001 -1.999564E+001 -2.373060E+001 -2.133422E+001 -2.440370E+001
9400.0000     -2.280194E+001 -1.644323E+001 -1.998558E+001 -2.405167E+001 -1.999212E+001 -2.406948E+001 -2.154976E+001 -2.798780E+001
9500.0000     -2.309654E+001 -2.007493E+001 -1.998530E+001 -2.434047E+001 -1.999377E+001 -2.435999E+001 -2.179909E+001 -3.140816E+001
9600.0000     -2.333500E+001 -2.387002E+001 -1.997742E+001 -2.464382E+001 -1.998240E+001 -2.465874E+001 -2.212575E+001 -3.486713E+001
9700.0000     -2.358025E+001 -2.776958E+001 -1.998016E+001 -2.498194E+001 -1.998382E+001 -2.499462E+001 -2.259535E+001 -3.885632E+001
9800.0000     -2.381318E+001 -3.069235E+001 -1.998833E+001 -2.528230E+001 -1.999183E+001 -2.529038E+001 -2.297692E+001 -4.351508E+001
9900.0000     -2.406201E+001 -3.370868E+001 -1.998413E+001 -2.556849E+001 -1.998791E+001 -2.560388E+001 -2.320271E+001 -4.897388E+001
10000.000     -2.442991E+001 -3.642957E+001 -1.998885E+001 -2.584420E+001 -1.999454E+001 -2.586580E+001 -2.328157E+001 -5.375257E+001
10100.000     -2.471527E+001 -3.952223E+001 -1.999188E+001 -2.617211E+001 -1.999554E+001 -2.618212E+001 -2.321533E+001 -5.719693E+001
10200.000     -2.508819E+001 -4.217555E+001 -1.999322E+001 -2.647778E+001 -1.999780E+001 -2.648756E+001 -2.322267E+001 -5.929298E+001
10300.000     -2.535682E+001 -4.422509E+001 -1.999412E+001 -2.670833E+001 -1.999790E+001 -2.672027E+001 -2.332655E+001 -6.067315E+001
10400.000     -2.582148E+001 -4.636272E+001 -1.999676E+001 -2.699226E+001 -1.999946E+001 -2.700713E+001 -2.360364E+001 -6.163422E+001
10500.000     -2.626963E+001 -4.826617E+001 -1.999944E+001 -2.731997E+001 -2.000556E+001 -2.733233E+001 -2.391157E+001 -6.273787E+001
10600.000     -2.675455E+001 -5.062328E+001 -2.000175E+001 -2.758870E+001 -2.000532E+001 -2.760627E+001 -2.421314E+001 -6.391565E+001
10700.000     -2.720604E+001 -5.223837E+001 -2.001031E+001 -2.787323E+001 -2.001471E+001 -2.788725E+001 -2.461159E+001 -6.491981E+001
10800.000     -2.768897E+001 -5.438982E+001 -2.001316E+001 -2.817137E+001 -2.001913E+001 -2.818618E+001 -2.500086E+001 -6.611455E+001
10900.000     -2.835934E+001 -5.718991E+001 -2.000502E+001 -2.841218E+001 -2.000933E+001 -2.842288E+001 -2.529591E+001 -6.724421E+001
11000.000     -2.868447E+001 -5.959105E+001 -2.001503E+001 -2.873143E+001 -2.002106E+001 -2.874472E+001 -2.558483E+001 -6.820350E+001
11100.000     -2.908588E+001 -6.225702E+001 -2.000194E+001 -2.898248E+001 -2.000852E+001 -2.899593E+001 -2.590189E+001 -6.862238E+001
11200.000     -2.935655E+001 -6.376200E+001 -2.002282E+001 -2.926187E+001 -2.002685E+001 -2.927976E+001 -2.618531E+001 -6.854695E+001
11300.000     -2.973691E+001 -6.645561E+001 -2.001520E+001 -2.955290E+001 -2.001973E+001 -2.957022E+001 -2.658576E+001 -6.960918E+001
11400.000     -2.985081E+001 -6.824680E+001 -2.001000E+001 -2.984990E+001 -2.001565E+001 -2.987484E+001 -2.686255E+001 -7.145107E+001
11500.000     -2.978927E+001 -7.073362E+001 -2.002299E+001 -3.004432E+001 -2.002788E+001 -3.006759E+001 -2.685138E+001 -7.400559E+001
11600.000     -2.981593E+001 -7.090488E+001 -2.001349E+001 -3.035837E+001 -2.001820E+001 -3.037281E+001 -2.658095E+001 -7.533720E+001
11700.000     -2.981080E+001 -7.069971E+001 -2.001653E+001 -3.063303E+001 -2.002158E+001 -3.065631E+001 -2.623773E+001 -7.538165E+001
11800.000     -2.995986E+001 -7.151643E+001 -2.001695E+001 -3.093048E+001 -2.002014E+001 -3.095690E+001 -2.602007E+001 -7.406833E+001
11900.000     -2.986234E+001 -7.224355E+001 -2.000869E+001 -3.117417E+001 -2.001493E+001 -3.120333E+001 -2.596916E+001 -7.301405E+001
12000.000     -2.986765E+001 -7.255984E+001 -2.001769E+001 -3.145841E+001 -2.002315E+001 -3.146588E+001 -2.596809E+001 -7.314751E+001
12100.000     -2.974960E+001 -7.250871E+001 -2.001837E+001 -3.173301E+001 -2.002334E+001 -3.175369E+001 -2.606684E+001 -7.442413E+001
12200.000     -2.981176E+001 -7.379405E+001 -2.002204E+001 -3.205615E+001 -2.002664E+001 -3.207963E+001 -2.597026E+001 -7.720692E+001
12300.000     -2.982421E+001 -7.516591E+001 -2.002039E+001 -3.228492E+001 -2.002516E+001 -3.230386E+001 -2.567934E+001 -8.014347E+001
12400.000     -2.957630E+001 -7.729541E+001 -2.001823E+001 -3.259078E+001 -2.002305E+001 -3.261060E+001 -2.530144E+001 -8.292291E+001
12500.000     -2.946996E+001 -7.796983E+001 -2.002351E+001 -3.287968E+001 -2.002794E+001 -3.289737E+001 -2.490181E+001 -8.537357E+001
12600.000     -2.942224E+001 -7.944286E+001 -2.002334E+001 -3.316769E+001 -2.002607E+001 -3.318305E+001 -2.453935E+001 -8.715881E+001
12700.000     -2.953986E+001 -8.221510E+001 -2.003029E+001 -3.344100E+001 -2.003457E+001 -3.346346E+001 -2.425568E+001 -8.947710E+001
12800.000     -2.948597E+001 -8.433647E+001 -2.002641E+001 -3.376619E+001 -2.002907E+001 -3.377876E+001 -2.386042E+001 -9.216732E+001
12900.000     -2.958148E+001 -8.759952E+001 -2.002499E+001 -3.402374E+001 -2.002960E+001 -3.403869E+001 -2.362762E+001 -9.437421E+001
13000.000     -2.966062E+001 -9.128498E+001 -2.002708E+001 -3.429277E+001 -2.003356E+001 -3.429350E+001 -2.329869E+001 -9.690948E+001
13100.000     -2.956128E+001 -9.608887E+001 -2.001817E+001 -3.457756E+001 -2.002347E+001 -3.459373E+001 -2.302962E+001 -9.938007E+001
13200.000     -2.944212E+001 -9.996554E+001 -2.002032E+001 -3.485842E+001 -2.002526E+001 -3.488386E+001 -2.280738E+001 -1.013391E+002
13300.000     -2.919962E+001 -1.035595E+002 -2.002560E+001 -3.514103E+001 -2.003025E+001 -3.516702E+001 -2.265072E+001 -1.036423E+002
13400.000     -2.927797E+001 -1.073871E+002 -2.002077E+001 -3.539826E+001 -2.002501E+001 -3.542306E+001 -2.265256E+001 -1.058377E+002
13500.000     -2.918476E+001 -1.115294E+002 -2.002646E+001 -3.572789E+001 -2.003006E+001 -3.573809E+001 -2.267129E+001 -1.091659E+002
13600.000     -2.916187E+001 -1.164499E+002 -2.001925E+001 -3.601598E+001 -2.002518E+001 -3.603156E+001 -2.274891E+001 -1.127767E+002
13700.000     -2.895438E+001 -1.202603E+002 -2.002759E+001 -3.631695E+001 -2.003163E+001 -3.634302E+001 -2.275849E+001 -1.172346E+002
13800.000     -2.890261E+001 -1.241347E+002 -2.003460E+001 -3.662798E+001 -2.004064E+001 -3.663290E+001 -2.271703E+001 -1.225915E+002
13900.000     -2.894634E+001 -1.273100E+002 -2.003059E+001 -3.690622E+001 -2.003635E+001 -3.691686E+001 -2.254703E+001 -1.276649E+002
14000.000     -2.892287E+001 -1.315780E+002 -2.003646E+001 -3.723137E+001 -2.003995E+001 -3.725871E+001 -2.232086E+001 -1.319772E+002
14100.000     -2.911895E+001 -1.354288E+002 -2.003210E+001 -3.749620E+001 -2.003766E+001 -3.751351E+001 -2.207458E+001 -1.359909E+002
14200.000     -2.923636E+001 -1.390390E+002 -2.003531E+001 -3.774739E+001 -2.004259E+001 -3.776685E+001 -2.193852E+001 -1.392498E+002
14300.000     -2.950903E+001 -1.437813E+002 -2.004853E+001 -3.806333E+001 -2.005293E+001 -3.807801E+001 -2.190501E+001 -1.428401E+002
