!Mode: Constant current
!Vd_set [V]: 1.7
!Id_set [A]: 0.05
!Vd [V]: 1.7
!Vg [V]: 0.31
!Id [A]: 0.049986
!Ig [A]: 2.5e-05
!bias: Vd=1.7V Id=50.0mA
!psx-card: 1
!psx-channel: 1
!VNA ID: Agilent Technologies,E8361A,US43140535,A.06.04.32
!IFBW [Hz]: 50.0
!Averaging: 1
!Power [dBm]: -50.0
!Power Slope [dB/GHz]: 0.0
!Reduce IF at low frequency: 1
!Sweep_index: 1
!DUT model number: LNF-LNC15_29B
!DUT serial number: 141Z
!Station: RT1
!Setup: Room temperature S-parameter
!Method: rt-spar
!Measurement start: 2021-02-16 09:14:53
!Measurement end: 2021-02-16 09:15:11
!Measurement length [s]: 17.991376876831055
!Saved by LNF Software Version: 0.9.109
#HZ S DB R 50
1.000000000000000e+08	-8.453300346093894e-02	-8.341254695256680e+00	-4.547732564646327e+01	1.108988450165496e+02	-7.613601079223828e+01	-7.836604573012669e+01	-1.613914480595689e-02	-5.487019923279313e+00
2.000000000000000e+08	-2.347353990811181e-01	-1.601828090879696e+01	-2.906739941703100e+01	3.186957100204545e+01	-7.655050460091636e+01	1.336863204447637e+02	-8.891821422066491e-03	-1.101005518776044e+01
3.000000000000000e+08	-3.272544377221417e-01	-2.334275343461480e+01	-2.055513310029572e+01	1.414317510656485e+01	-9.419247664569652e+01	9.064875880892690e+01	-1.978337406080659e-02	-1.647997685131059e+01
4.000000000000000e+08	-3.707704515661852e-01	-3.064094346690433e+01	-1.349176281633155e+01	-1.711221595836682e+01	-8.893940856453307e+01	-6.088200433373004e+01	5.643266196057596e-03	-2.184873136294984e+01
5.000000000000000e+08	-4.101563485346508e-01	-3.768139251658071e+01	-9.942154997881786e+00	-4.345624716238440e+01	-7.800587733020053e+01	1.638397109709224e+01	6.078670085283382e-03	-2.726980019225292e+01
6.000000000000000e+08	-4.474406870357638e-01	-4.489089647266528e+01	-7.453014120965809e+00	-6.358557340281798e+01	-8.371898689586743e+01	7.761184049013121e+01	7.118965034422725e-02	-3.316997209648854e+01
7.000000000000000e+08	-4.713672020355597e-01	-5.212134020602524e+01	-5.550058000598277e+00	-8.037874400068777e+01	-8.708402583742435e+01	-2.042636119455755e+01	5.948058825242684e-02	-3.938066704035444e+01
8.000000000000000e+08	-4.808593390768517e-01	-5.933727133926556e+01	-4.055230908081154e+00	-9.499771538412246e+01	-8.839070135250175e+01	-1.648039420038637e+02	-3.769251782553092e-02	-4.506828542221287e+01
9.000000000000000e+08	-5.024980545515128e-01	-6.634688485108651e+01	-2.790786158031249e+00	-1.079421971730018e+02	-9.867304952342644e+01	-1.223687791316787e+02	-7.097574122455835e-02	-5.059652139657327e+01
1.000000000000000e+09	-5.179703806579168e-01	-7.349871393533135e+01	-1.686300603112730e+00	-1.199144063042833e+02	-1.053237903279820e+02	-1.035324648596188e+01	-1.077872612987683e-01	-5.614533455327605e+01
1.100000000000000e+09	-5.333476465843472e-01	-8.085850799744168e+01	-7.333990781354545e-01	-1.315331808419723e+02	-7.852230269587737e+01	-5.361233506189135e+01	-1.401696982169795e-01	-6.163019219955898e+01
1.200000000000000e+09	-5.652333473082203e-01	-8.781383505919881e+01	1.242669020812475e-01	-1.422620986126045e+02	-7.991515485057619e+01	-7.883512291336395e+01	-1.838585462102117e-01	-6.696381912279107e+01
1.300000000000000e+09	-5.595697815082721e-01	-9.476971746309303e+01	8.715540698985685e-01	-1.526452077049948e+02	-7.713552163915088e+01	-1.063313870276035e+02	-2.043762156329428e-01	-7.225436325720625e+01
1.400000000000000e+09	-5.592478956364317e-01	-1.021120272709469e+02	1.548751875913497e+00	-1.631604474361019e+02	-7.832164077845334e+01	-1.634340591845979e+02	-2.321048597667463e-01	-7.772603211614191e+01
1.500000000000000e+09	-5.819457655097205e-01	-1.090312018497522e+02	2.105553470586298e+00	-1.730736642302297e+02	-8.066568512210810e+01	-1.392104058117765e+02	-2.666931715373198e-01	-8.311332582945040e+01
1.600000000000000e+09	-5.871530057516335e-01	-1.160753319813206e+02	2.638351275441146e+00	1.770718089457797e+02	-7.433609449903783e+01	-1.668253532808519e+02	-2.987062219812302e-01	-8.845073851145111e+01
1.700000000000000e+09	-5.951557649671969e-01	-1.230002598047570e+02	3.088125782394923e+00	1.675071878704585e+02	-7.765080335950057e+01	-1.685473537792285e+02	-3.174204956101789e-01	-9.363489984566357e+01
1.800000000000000e+09	-5.890391971761465e-01	-1.302206829873993e+02	3.490149506059512e+00	1.576855953412262e+02	-7.536739546658572e+01	-1.675710633043753e+02	-3.438899884175373e-01	-9.907349550524951e+01
1.900000000000000e+09	-6.028025494925735e-01	-1.370122182491397e+02	3.827369105587995e+00	1.483710678337772e+02	-7.256636744990593e+01	1.715743099873576e+02	-3.627839551870735e-01	-1.042869078245804e+02
2.000000000000000e+09	-6.192524545681667e-01	-1.438349244815602e+02	4.091538747620246e+00	1.391357346600459e+02	-7.077088370233200e+01	-1.788803444392822e+02	-4.093188364397626e-01	-1.096787944973563e+02
2.100000000000000e+09	-6.295216446222371e-01	-1.506563207550261e+02	4.334076480551034e+00	1.300969062564554e+02	-7.096496376168572e+01	1.567387735008281e+02	-4.363653711175203e-01	-1.147622124648982e+02
2.200000000000000e+09	-6.252084779041682e-01	-1.577374588828563e+02	4.518650843906320e+00	1.208304683820596e+02	-7.505200671836980e+01	1.509132293384775e+02	-4.557187046014404e-01	-1.202104478048850e+02
2.300000000000000e+09	-6.270097600440133e-01	-1.645483924669065e+02	4.677200311221469e+00	1.118085032253756e+02	-7.046378639265322e+01	1.512530051251921e+02	-4.890151734468775e-01	-1.255017977325517e+02
2.400000000000000e+09	-6.480714364093776e-01	-1.715327340521897e+02	4.734080815677296e+00	1.029409704651149e+02	-7.090952569310295e+01	1.225097005339515e+02	-5.148419792810837e-01	-1.309146428150237e+02
2.500000000000000e+09	-6.329870723487312e-01	-1.782122375466557e+02	4.797800443012082e+00	9.420278615572474e+01	-7.233160273424537e+01	1.243139496602104e+02	-5.609335788642430e-01	-1.361556621234818e+02
2.600000000000000e+09	-6.442151019940112e-01	1.749331537285028e+02	4.798444339300374e+00	8.556184902157401e+01	-6.980414679647888e+01	1.254289030670385e+02	-5.716987592157298e-01	-1.415179439778438e+02
2.700000000000000e+09	-6.566442411444394e-01	1.680522146308639e+02	4.775040674414223e+00	7.688916108862540e+01	-7.384802192599759e+01	9.925883409060623e+01	-6.040550072275108e-01	-1.468633034102214e+02
2.800000000000000e+09	-6.532549021319483e-01	1.612451623171522e+02	4.685773665169965e+00	6.859676678517019e+01	-6.868096611499725e+01	1.019609165960915e+02	-6.209817406079607e-01	-1.521489381870724e+02
2.900000000000000e+09	-6.867691581790630e-01	1.544714147718727e+02	4.571825003550987e+00	6.033726189956060e+01	-6.672777342039845e+01	7.391186119640444e+01	-6.636469900380251e-01	-1.576055984656622e+02
3.000000000000000e+09	-6.989777387252749e-01	1.479596927322102e+02	4.419981121553977e+00	5.243186236682281e+01	-6.798880971014387e+01	6.402657113787545e+01	-6.928439564677129e-01	-1.627626249795447e+02
3.100000000000000e+09	-6.986622661422304e-01	1.411670977706408e+02	4.250472928077469e+00	4.438886780872097e+01	-6.852218898527032e+01	7.627339966642568e+01	-7.181874722634787e-01	-1.682531413098624e+02
3.200000000000000e+09	-7.019002220586829e-01	1.345893926810175e+02	4.039435762605773e+00	3.672073721312932e+01	-6.664543673537040e+01	5.737969935376550e+01	-7.360421540428498e-01	-1.734182453364736e+02
3.300000000000000e+09	-7.116242793784632e-01	1.278698019382115e+02	3.800460964492542e+00	2.908181732674511e+01	-6.795736334221917e+01	4.607549565002803e+01	-7.601170099790062e-01	-1.789662167477338e+02
3.400000000000000e+09	-7.313430822568894e-01	1.213978352696814e+02	3.503489451615270e+00	2.187553761718580e+01	-6.880570621173550e+01	4.213018553619433e+01	-8.026770804372797e-01	1.758259016780966e+02
3.500000000000000e+09	-7.438972571987326e-01	1.147192943816031e+02	3.209120664160364e+00	1.458490750899758e+01	-6.629211605670724e+01	2.860025088469117e+01	-8.291591685205781e-01	1.704056827476433e+02
3.600000000000000e+09	-7.340117570896878e-01	1.084020503254618e+02	2.894946633444342e+00	7.769540032908769e+00	-6.685888069642078e+01	2.429762704538444e+01	-8.646981209168335e-01	1.652888245140184e+02
3.700000000000000e+09	-7.485703808319967e-01	1.017347688870029e+02	2.544208703077986e+00	9.250049092379844e-01	-6.723530654111123e+01	1.502883295874945e+01	-8.883149417932014e-01	1.599198617110590e+02
3.800000000000000e+09	-7.648567169036340e-01	9.537161914793973e+01	2.161721351510712e+00	-5.718733974831048e+00	-6.822226339675068e+01	7.522031262182412e+00	-9.280233687187229e-01	1.546795942639399e+02
3.900000000000000e+09	-7.596339722469680e-01	8.887088887791010e+01	1.773949887948877e+00	-1.210162848442126e+01	-6.754261583458458e+01	9.486010324291993e+00	-9.600790177629797e-01	1.493091269545372e+02
4.000000000000000e+09	-7.963904558827412e-01	8.265538920207585e+01	1.345034320790707e+00	-1.824774668645157e+01	-6.541512769817557e+01	8.354168854850590e+00	-1.001105612848768e+00	1.441453643122464e+02
4.100000000000000e+09	-7.868060183376715e-01	7.596846290064296e+01	9.202741226422910e-01	-2.431860025278513e+01	-6.514398240617597e+01	-2.799508379066665e+01	-1.030178279113276e+00	1.388803650888909e+02
4.200000000000000e+09	-7.894152155646582e-01	6.985068304191842e+01	4.705312745186234e-01	-3.002166866270935e+01	-6.427109608047152e+01	-1.363262594384961e+01	-1.065640427105398e+00	1.336884511543360e+02
4.300000000000000e+09	-8.077084914065364e-01	6.330801504512525e+01	-1.563717170258828e-02	-3.582699225635373e+01	-6.521815879034961e+01	-3.064033909667736e+01	-1.084828772021457e+00	1.283709186247172e+02
4.400000000000000e+09	-8.303078748185013e-01	5.718698746587911e+01	-5.055248011796378e-01	-4.100432402155879e+01	-6.455500499045606e+01	-1.759053074594310e+01	-1.120986902466264e+00	1.232196796709342e+02
4.500000000000000e+09	-8.516724715657636e-01	5.068080666702902e+01	-1.030072613379466e+00	-4.616627155335640e+01	-6.490701840741735e+01	-3.189165188997179e+01	-1.146298549527966e+00	1.178855099035706e+02
4.600000000000000e+09	-8.459607350408700e-01	4.455145012950317e+01	-1.554233356858937e+00	-5.107833127472857e+01	-6.470998259773215e+01	-4.144607192925388e+01	-1.187479908915734e+00	1.127607410739445e+02
4.700000000000000e+09	-8.334585760844027e-01	3.827375122047923e+01	-2.122077154076381e+00	-5.581874530736066e+01	-6.579204379466314e+01	-3.918060401543248e+01	-1.198941314487205e+00	1.074035636387401e+02
4.800000000000000e+09	-8.568336058685554e-01	3.202795545602159e+01	-2.686537832702052e+00	-6.026718358634163e+01	-6.503778327588863e+01	-5.570410695895463e+01	-1.238062830904725e+00	1.022452256324201e+02
4.900000000000000e+09	-8.469579600853078e-01	2.561503515440888e+01	-3.320844158610025e+00	-6.451623797034118e+01	-6.326850499369983e+01	-6.079622376165671e+01	-1.258523071805631e+00	9.696618451583919e+01
5.000000000000000e+09	-8.915928334225862e-01	1.918582571998664e+01	-3.981202258950899e+00	-6.846000230262779e+01	-6.308130453658706e+01	-6.975732855345045e+01	-1.315580759348165e+00	9.164462688716081e+01
5.100000000000000e+09	-8.732937879991447e-01	1.295376741031684e+01	-4.696161734562429e+00	-7.182227144215891e+01	-6.500323882760111e+01	-8.103447629953460e+01	-1.338262685100378e+00	8.650439140867554e+01
5.200000000000000e+09	-8.907535442754442e-01	6.792751451940653e+00	-5.404548664699750e+00	-7.486284415698272e+01	-6.533972554400805e+01	-7.608257902948878e+01	-1.386073568516224e+00	8.111864647927180e+01
5.300000000000000e+09	-8.808417289515248e-01	4.306941365509114e-01	-6.227522219581219e+00	-7.727431260529842e+01	-6.240426048109761e+01	-1.084736457844106e+02	-1.419978887965175e+00	7.601377929034628e+01
5.400000000000000e+09	-9.121896806448275e-01	-5.897604654717412e+00	-7.075079196367851e+00	-7.896343149154117e+01	-6.302178478770671e+01	-9.484077860763364e+01	-1.476168299568218e+00	7.053176227594105e+01
5.500000000000000e+09	-8.925692208145902e-01	-1.205634262598543e+01	-7.964388222877786e+00	-7.966442968501337e+01	-6.359532761447826e+01	-1.044202276601462e+02	-1.521129659176173e+00	6.549098225636915e+01
5.600000000000000e+09	-9.096021976723578e-01	-1.852256483626029e+01	-8.897374705929380e+00	-7.913166592438182e+01	-6.227482159984275e+01	-1.129226855315544e+02	-1.576616543333633e+00	6.006888775929743e+01
5.700000000000000e+09	-9.002682986577091e-01	-2.488196651476148e+01	-9.788167200218913e+00	-7.703222471609068e+01	-6.297956232313940e+01	-1.177040992386905e+02	-1.624901191692210e+00	5.507021411907930e+01
5.800000000000000e+09	-9.322642214125337e-01	-3.128945884411463e+01	-1.060962352313102e+01	-7.314344105614214e+01	-6.273449188126489e+01	-1.261370589730877e+02	-1.679274637952599e+00	4.967144430135921e+01
5.900000000000000e+09	-9.487704026163396e-01	-3.740548514401006e+01	-1.129181874084203e+01	-6.714373418823519e+01	-6.326137623064607e+01	-1.241570689978176e+02	-1.726340280105064e+00	4.459801145045051e+01
6.000000000000000e+09	-9.657035594497274e-01	-4.398755749756479e+01	-1.155317847592744e+01	-5.938731417939147e+01	-6.376723200947735e+01	-1.364884282706224e+02	-1.775891368291411e+00	3.920796029506491e+01
6.100000000000000e+09	-9.833821067702132e-01	-5.005733282656632e+01	-1.140537074235142e+01	-5.091010705082211e+01	-6.231235432890294e+01	-1.481739938841143e+02	-1.839400837793719e+00	3.422789079939798e+01
6.200000000000000e+09	-9.917855485821965e-01	-5.655447120338005e+01	-1.073665787614644e+01	-4.371828984470606e+01	-6.136617190510719e+01	-1.571665539892072e+02	-1.888711556886646e+00	2.884694603594932e+01
6.300000000000000e+09	-9.800478154811196e-01	-6.262714483421638e+01	-9.750153721597897e+00	-3.793941179981878e+01	-6.299699194759836e+01	-1.588871934906141e+02	-1.948660342847323e+00	2.381809269251857e+01
6.400000000000000e+09	-9.996197842566484e-01	-6.914773448884957e+01	-8.571609971050570e+00	-3.441949158702683e+01	-6.323234510077452e+01	-1.700623486865447e+02	-1.989691940913155e+00	1.848464205812005e+01
6.500000000000000e+09	-1.015415320670825e+00	-7.523630307056126e+01	-7.370987880801925e+00	-3.259544913224629e+01	-6.272406137473855e+01	-1.741602505650193e+02	-2.048745965438334e+00	1.348079766321749e+01
6.600000000000000e+09	-1.044179278589174e+00	-8.181208562771589e+01	-6.163060950211019e+00	-3.243287122338962e+01	-6.229889888537350e+01	1.789873237839298e+02	-2.103223238053412e+00	8.194182448857099e+00
6.700000000000000e+09	-1.043376529364131e+00	-8.782606637482242e+01	-4.979638860513846e+00	-3.327550723297846e+01	-6.253623988457616e+01	1.719996661554400e+02	-2.180715090310166e+00	3.033951053635176e+00
6.800000000000000e+09	-1.060258630417195e+00	-9.425409519975750e+01	-3.848603902211806e+00	-3.512404327320726e+01	-6.242335991755274e+01	1.618539339041808e+02	-2.221236609400079e+00	-2.251144743013690e+00
6.900000000000000e+09	-1.070285536004707e+00	-1.004723222439818e+02	-2.757229492665580e+00	-3.754311571424268e+01	-6.308301004959880e+01	1.598770745037151e+02	-2.305053955309501e+00	-7.407292445326108e+00
7.000000000000000e+09	-1.092982717146938e+00	-1.068653124620081e+02	-1.774434922492036e+00	-4.053286793241183e+01	-6.187613061327688e+01	1.534068550375733e+02	-2.366061859098012e+00	-1.253283403271625e+01
7.100000000000000e+09	-1.117819017028690e+00	-1.130042842994313e+02	-7.882399964766380e-01	-4.389673661772180e+01	-6.280961942162789e+01	1.499736920207263e+02	-2.449793348167355e+00	-1.790309464766296e+01
7.200000000000000e+09	-1.143013931155331e+00	-1.193655776569610e+02	1.256019255952525e-01	-4.769726731567278e+01	-6.168540573114065e+01	1.403049866883622e+02	-2.508243020053189e+00	-2.301337169201633e+01
7.300000000000000e+09	-1.155986492057967e+00	-1.256416403218529e+02	1.051041047316772e+00	-5.180331884774386e+01	-6.191834793285508e+01	1.345607647243314e+02	-2.596133280089276e+00	-2.853119848729270e+01
7.400000000000000e+09	-1.187000444520001e+00	-1.320113221105636e+02	1.877447978383396e+00	-5.598028036197038e+01	-6.232044809974234e+01	1.233380467612149e+02	-2.661244200971721e+00	-3.346431806299240e+01
7.500000000000000e+09	-1.223890168727490e+00	-1.383537635055667e+02	2.713020018378887e+00	-6.069063768804246e+01	-6.159895101783219e+01	1.185180287159836e+02	-2.750903041206247e+00	-3.907325888483862e+01
7.600000000000000e+09	-1.223342609856539e+00	-1.447822375518438e+02	3.500162179142508e+00	-6.529362272393882e+01	-6.150179219237120e+01	1.141840800705908e+02	-2.817837900467143e+00	-4.408109317684138e+01
7.700000000000000e+09	-1.258957160285578e+00	-1.513841911529755e+02	4.284611122908238e+00	-7.043600973791918e+01	-6.165191988138335e+01	1.011677730264289e+02	-2.912266767589585e+00	-4.970363895430455e+01
7.800000000000000e+09	-1.311046524805420e+00	-1.577629289202079e+02	5.021839642725788e+00	-7.529220850679212e+01	-6.256408035292556e+01	9.662801647521205e+01	-2.989156392038017e+00	-5.457400981142909e+01
7.900000000000000e+09	-1.323872021588235e+00	-1.643613980432719e+02	5.771964660712946e+00	-8.048011103188915e+01	-6.129180112818278e+01	9.274204615905917e+01	-3.070187961755906e+00	-6.025865732797708e+01
8.000000000000000e+09	-1.338695536990982e+00	-1.703872155770974e+02	6.460127059472165e+00	-8.559916689628101e+01	-6.264952394971766e+01	8.395394068438321e+01	-3.153579910056261e+00	-6.521559090502272e+01
8.100000000000000e+09	-1.374236952948061e+00	-1.772405248511604e+02	7.177526232883097e+00	-9.104838881917880e+01	-6.304610971423547e+01	7.453609897020787e+01	-3.218373706868210e+00	-7.080715148019016e+01
8.200000000000000e+09	-1.410938201564667e+00	1.764349657327890e+02	7.822269221189050e+00	-9.656539138323826e+01	-6.257660576531552e+01	6.415652610656079e+01	-3.328580667017318e+00	-7.568902191972445e+01
8.300000000000000e+09	-1.471858916105196e+00	1.694943476434399e+02	8.471601073629866e+00	-1.022697367032451e+02	-6.124900914017365e+01	5.933152111380650e+01	-3.386683689862137e+00	-8.124968315143599e+01
8.400000000000000e+09	-1.486231973321756e+00	1.632293795686075e+02	9.134634735602830e+00	-1.077000055771483e+02	-6.199553540197900e+01	6.085209519401574e+01	-3.500763590344609e+00	-8.617949039598776e+01
8.500000000000000e+09	-1.510251854588720e+00	1.565266285409035e+02	9.764030059920451e+00	-1.131254863954023e+02	-6.362780206553539e+01	4.916911227914006e+01	-3.537374524866260e+00	-9.153752497327551e+01
8.600000000000000e+09	-1.538528986671785e+00	1.500589816951166e+02	1.037939905753366e+01	-1.190137375567030e+02	-6.258585743754075e+01	4.528944292181222e+01	-3.673802250178897e+00	-9.655615098428548e+01
8.700000000000000e+09	-1.583264964838877e+00	1.433510296017701e+02	1.099418544022167e+01	-1.249192404879118e+02	-6.223613361438992e+01	4.217218865398677e+01	-3.708701118156186e+00	-1.018787957872022e+02
8.800000000000000e+09	-1.656433371736496e+00	1.370716983846263e+02	1.158283349022192e+01	-1.307124660842772e+02	-6.249535284900315e+01	2.521046594330936e+01	-3.858673137960760e+00	-1.069634505069126e+02
8.900000000000000e+09	-1.651516698107614e+00	1.302369018366570e+02	1.217770141515383e+01	-1.366077526195261e+02	-6.326352595869963e+01	3.163923498183907e+01	-3.901489531530835e+00	-1.121105914738036e+02
9.000000000000000e+09	-1.711271490145405e+00	1.238640957875578e+02	1.275693710803313e+01	-1.427575609652459e+02	-6.282984433961799e+01	2.194822290918390e+01	-4.043504957831291e+00	-1.173700833292789e+02
9.100000000000000e+09	-1.738566412355037e+00	1.169905843714391e+02	1.330447832349574e+01	-1.487148553945745e+02	-6.385556161626542e+01	1.152988703573398e+01	-4.101746297695610e+00	-1.222884181309799e+02
9.200000000000000e+09	-1.804012386747334e+00	1.107788975882166e+02	1.388988732932897e+01	-1.549592349283687e+02	-6.434037655830861e+01	2.083373153145595e+00	-4.228220823318495e+00	-1.277284308727359e+02
9.300000000000000e+09	-1.821758916717021e+00	1.039617192214398e+02	1.446569859105482e+01	-1.610316119490480e+02	-6.303749330711802e+01	9.052028022719195e-02	-4.298701812351589e+00	-1.324696296733889e+02
9.400000000000000e+09	-1.885546973024730e+00	9.755746545459290e+01	1.500582951849142e+01	-1.674342547131415e+02	-6.496668839147172e+01	-8.421244116005502e+00	-4.441897827865838e+00	-1.379607263158545e+02
